(1735395799.478483) can0 660#000004
(1735395799.478486) can0 661#00000000
(1735395799.478492) can0 662#00000000
(1735395799.480737) can0 670#000004
(1735395799.480740) can0 671#00000000
(1735395799.480742) can0 672#00000000
(1735395799.482540) can0 660#000004
(1735395799.482554) can0 661#00000000
(1735395799.482557) can0 662#00000000
(1735395799.484601) can0 670#000004
(1735395799.484603) can0 671#00000000
(1735395799.484605) can0 672#00000000
(1735395799.484607) can0 560#AAFF000001
(1735395799.485570) can0 561#030208
(1735395799.485573) can0 562#68FFD3FF05000000
(1735395799.485575) can0 565#74010000
(1735395799.485576) can0 566#0000
(1735395799.485578) can0 567#660300000000
(1735395799.486539) can0 660#000004
(1735395799.486551) can0 661#00000000
(1735395799.486552) can0 662#00000000
(1735395799.488514) can0 670#000004
(1735395799.488529) can0 671#00000000
(1735395799.488531) can0 672#00000000
(1735395799.490638) can0 660#000004
(1735395799.490642) can0 661#00000000
(1735395799.490644) can0 662#00000000
(1735395799.492461) can0 670#000004
(1735395799.492464) can0 671#00000000
(1735395799.492477) can0 672#00000000
(1735395799.494502) can0 660#000004
(1735395799.494505) can0 661#00000000
(1735395799.494506) can0 662#00000000
(1735395799.494508) can0 560#B4FF000001
(1735395799.495557) can0 561#030208
(1735395799.495559) can0 562#D3FF6AFF03000000
(1735395799.495561) can0 565#74010000
(1735395799.495562) can0 566#0000
(1735395799.495564) can0 567#660300000000
(1735395799.495567) can0 670#000004
(1735395799.496707) can0 671#00000000
(1735395799.496709) can0 672#00000000
(1735395799.498531) can0 660#000004
(1735395799.498533) can0 661#00000000
(1735395799.498534) can0 662#00000000
(1735395799.501288) can0 670#000004
(1735395799.501291) can0 671#00000000
(1735395799.501293) can0 672#00000000
(1735395799.503406) can0 660#000004
(1735395799.503409) can0 661#00000000
(1735395799.503410) can0 662#00000000
(1735395799.504507) can0 670#000004
(1735395799.504510) can0 671#00000000
(1735395799.504511) can0 672#00000000
(1735395799.504512) can0 560#BEFF000001
(1735395799.505560) can0 561#030208
(1735395799.505563) can0 562#2CFFEAFE03000000
(1735395799.505564) can0 565#74010000
(1735395799.505566) can0 566#0000
(1735395799.505567) can0 567#660300000000
(1735395799.505570) can0 660#000004
(1735395799.506718) can0 661#00000000
(1735395799.506721) can0 662#00000000
(1735395799.509219) can0 670#000004
(1735395799.509223) can0 671#00000000
(1735395799.509227) can0 672#00000000
(1735395799.510533) can0 660#000004
(1735395799.510535) can0 661#00000000
(1735395799.510536) can0 662#00000000
(1735395799.513301) can0 670#000004
(1735395799.513303) can0 671#00000000
(1735395799.513306) can0 672#00000000
(1735395799.515273) can0 660#000004
(1735395799.515277) can0 661#00000000
(1735395799.515280) can0 662#00000000
(1735395799.515282) can0 560#C8FF000001
(1735395799.515566) can0 561#030208
(1735395799.515570) can0 562#4000450001000000
(1735395799.515572) can0 565#74010000
(1735395799.515573) can0 566#0000
(1735395799.515575) can0 567#660300000000
(1735395799.515577) can0 670#000004
(1735395799.516892) can0 671#00000000
(1735395799.516894) can0 672#00000000
(1735395799.518545) can0 660#000004
(1735395799.518547) can0 661#00000000
(1735395799.518549) can0 662#00000000
(1735395799.521286) can0 670#000004
(1735395799.521289) can0 671#00000000
(1735395799.521291) can0 672#00000000
(1735395799.522589) can0 660#000004
(1735395799.522592) can0 661#00000000
(1735395799.522594) can0 662#00000000
(1735395799.524706) can0 670#000004
(1735395799.524708) can0 671#00000000
(1735395799.524711) can0 672#00000000
(1735395799.524713) can0 560#D2FF000001
(1735395799.526459) can0 561#030208
(1735395799.526463) can0 562#130097FF04000000
(1735395799.526464) can0 565#74010000
(1735395799.526466) can0 566#0000
(1735395799.526468) can0 567#660300000000
(1735395799.526568) can0 660#000004
(1735395799.526570) can0 661#00000000
(1735395799.526572) can0 662#00000000
(1735395799.528575) can0 670#000004
(1735395799.528577) can0 671#00000000
(1735395799.528580) can0 672#00000000
(1735395799.531286) can0 660#000004
(1735395799.531288) can0 661#00000000
(1735395799.531290) can0 662#00000000
(1735395799.533298) can0 670#000004
(1735395799.533301) can0 671#00000000
(1735395799.533303) can0 672#00000000
(1735395799.535313) can0 660#000004
(1735395799.535316) can0 661#00000000
(1735395799.535318) can0 662#00000000
(1735395799.535319) can0 560#DCFF000001
(1735395799.535561) can0 561#030208
(1735395799.535564) can0 562#04013A0100000000
(1735395799.535566) can0 563#D0DEC8C8C5
(1735395799.535568) can0 564#1A15
(1735395799.535571) can0 565#74010000
(1735395799.535572) can0 566#0000
(1735395799.537806) can0 567#660300000000
(1735395799.537809) can0 670#000004
(1735395799.537811) can0 671#00000000
(1735395799.537812) can0 672#00000000
(1735395799.538629) can0 660#000004
(1735395799.538631) can0 661#00000000
(1735395799.538633) can0 662#00000000
(1735395799.541232) can0 670#000004
(1735395799.541235) can0 671#00000000
(1735395799.541237) can0 672#00000000
(1735395799.543310) can0 660#000004
(1735395799.543313) can0 661#00000000
(1735395799.543315) can0 662#00000000
(1735395799.545657) can0 670#000004
(1735395799.545660) can0 671#00000000
(1735395799.545661) can0 672#00000000
(1735395799.545663) can0 560#E6FF000001
(1735395799.545704) can0 561#030208
(1735395799.545705) can0 562#3800280003000000
(1735395799.545707) can0 565#74010000
(1735395799.545708) can0 566#0000
(1735395799.545711) can0 567#660300000000
(1735395799.545715) can0 660#000004
(1735395799.547941) can0 661#00000000
(1735395799.547943) can0 662#00000000
(1735395799.548536) can0 670#000004
(1735395799.548539) can0 671#00000000
(1735395799.548541) can0 672#00000000
(1735395799.551240) can0 660#000004
(1735395799.551244) can0 661#00000000
(1735395799.551245) can0 662#00000000
(1735395799.553574) can0 670#000004
(1735395799.553577) can0 671#00000000
(1735395799.553579) can0 672#00000000
(1735395799.555714) can0 660#000004
(1735395799.555718) can0 661#00000000
(1735395799.555719) can0 662#00000000
(1735395799.555721) can0 560#F0FF000001
(1735395799.555768) can0 561#030208
(1735395799.555770) can0 562#DBFFF3FF02000000
(1735395799.555771) can0 565#74010000
(1735395799.555775) can0 566#0000
(1735395799.555779) can0 567#660300000000
(1735395799.555783) can0 670#000004
(1735395799.557308) can0 671#00000000
(1735395799.557310) can0 672#00000000
(1735395799.558672) can0 660#000004
(1735395799.558675) can0 661#00000000
(1735395799.558677) can0 662#00000000
(1735395799.561745) can0 670#000004
(1735395799.561748) can0 671#00000000
(1735395799.561750) can0 672#00000000
(1735395799.563759) can0 660#000004
(1735395799.563763) can0 661#00000000
(1735395799.563764) can0 662#00000000
(1735395799.565736) can0 670#000004
(1735395799.565739) can0 671#00000000
(1735395799.565741) can0 672#00000000
(1735395799.565743) can0 560#FAFF000001
(1735395799.565786) can0 561#030208
(1735395799.565788) can0 562#FD001D0100000000
(1735395799.565789) can0 565#74010000
(1735395799.565791) can0 566#0000
(1735395799.565792) can0 567#660300000000
(1735395799.567408) can0 660#000004
(1735395799.567410) can0 661#00000000
(1735395799.567412) can0 662#00000000
(1735395799.569384) can0 670#000004
(1735395799.569388) can0 671#00000000
(1735395799.569390) can0 672#00000000
(1735395799.570561) can0 660#000004
(1735395799.570563) can0 661#00000000
(1735395799.570565) can0 662#00000000
(1735395799.572675) can0 670#000004
(1735395799.572677) can0 671#00000000
(1735395799.572679) can0 672#00000000
(1735395799.574459) can0 660#000004
(1735395799.574462) can0 661#00000000
(1735395799.574465) can0 662#00000000
(1735395799.574477) can0 560#0400010001
(1735395799.575576) can0 561#030208
(1735395799.575578) can0 562#8BFF8CFF04000000
(1735395799.575579) can0 565#74010000
(1735395799.575581) can0 566#0000
(1735395799.575583) can0 567#660300000000
(1735395799.575585) can0 670#000004
(1735395799.577282) can0 671#00000000
(1735395799.577285) can0 672#00000000
(1735395799.578508) can0 660#000004
(1735395799.578511) can0 661#00000000
(1735395799.578512) can0 662#00000000
(1735395799.581392) can0 670#000004
(1735395799.581395) can0 671#00000000
(1735395799.581397) can0 672#00000000
(1735395799.583309) can0 660#000004
(1735395799.583311) can0 661#00000000
(1735395799.583312) can0 662#00000000
(1735395799.585632) can0 670#000004
(1735395799.585634) can0 671#00000000
(1735395799.585637) can0 672#00000000
(1735395799.585638) can0 560#0E00010001
(1735395799.585678) can0 561#030208
(1735395799.585679) can0 562#7200380003000000
(1735395799.585681) can0 565#74010000
(1735395799.585682) can0 566#0000
(1735395799.585685) can0 567#660300000000
(1735395799.587810) can0 660#000004
(1735395799.587812) can0 661#00000000
(1735395799.587814) can0 662#00000000
(1735395799.589733) can0 670#000004
(1735395799.589735) can0 671#00000000
(1735395799.589737) can0 672#00000000
(1735395799.591760) can0 660#000004
(1735395799.591762) can0 661#00000000
(1735395799.591764) can0 662#00000000
(1735395799.593299) can0 670#000004
(1735395799.593302) can0 671#00000000
(1735395799.593304) can0 672#00000000
(1735395799.594668) can0 660#000004
(1735395799.594670) can0 661#00000000
(1735395799.594672) can0 662#00000000
(1735395799.594674) can0 560#1800010001
(1735395799.596768) can0 561#030208
(1735395799.596771) can0 562#15006F0001000000
(1735395799.596772) can0 565#74010000
(1735395799.596773) can0 566#0000
(1735395799.596775) can0 567#660300000000
(1735395799.596777) can0 670#000004
(1735395799.596816) can0 671#00000000
(1735395799.596818) can0 672#00000000
(1735395799.598491) can0 660#000004
(1735395799.598494) can0 661#00000000
(1735395799.598496) can0 662#00000000
(1735395799.600603) can0 670#000004
(1735395799.600606) can0 671#00000000
(1735395799.600608) can0 672#00000000
(1735395799.602606) can0 660#000004
(1735395799.602609) can0 661#00000000
(1735395799.602611) can0 662#00000000
(1735395799.604550) can0 670#000004
(1735395799.604553) can0 671#00000000
(1735395799.604554) can0 672#00000000
(1735395799.604555) can0 560#2200010001
(1735395799.605747) can0 561#030208
(1735395799.605751) can0 562#B9FFA60001000000
(1735395799.605752) can0 565#74010000
(1735395799.605754) can0 566#0000
(1735395799.605756) can0 567#660300000000
(1735395799.605757) can0 660#000004
(1735395799.607944) can0 661#00000000
(1735395799.607947) can0 662#00000000
(1735395799.608516) can0 670#000004
(1735395799.608518) can0 671#00000000
(1735395799.608520) can0 672#00000000
(1735395799.611384) can0 660#000004
(1735395799.611387) can0 661#00000000
(1735395799.611388) can0 662#00000000
(1735395799.612660) can0 670#000004
(1735395799.612662) can0 671#00000000
(1735395799.612664) can0 672#00000000
(1735395799.614586) can0 660#000004
(1735395799.614589) can0 661#00000000
(1735395799.614591) can0 662#00000000
(1735395799.614593) can0 560#2C00010001
(1735395799.616301) can0 561#030208
(1735395799.616303) can0 562#0D00520003000000
(1735395799.616305) can0 565#74010000
(1735395799.616306) can0 566#0000
(1735395799.616309) can0 567#660300000000
(1735395799.616660) can0 670#000004
(1735395799.616662) can0 671#00000000
(1735395799.616663) can0 672#00000000
(1735395799.618572) can0 660#000004
(1735395799.618574) can0 661#00000000
(1735395799.618576) can0 662#00000000
(1735395799.620882) can0 670#000004
(1735395799.620884) can0 671#00000000
(1735395799.620887) can0 672#00000000
(1735395799.623285) can0 660#000004
(1735395799.623288) can0 661#00000000
(1735395799.623289) can0 662#00000000
(1735395799.624452) can0 670#000004
(1735395799.624455) can0 671#00000000
(1735395799.624456) can0 672#00000000
(1735395799.624457) can0 560#3600010001
(1735395799.626433) can0 561#030208
(1735395799.626436) can0 562#B7FFCEFF01000000
(1735395799.626439) can0 565#74010000
(1735395799.626440) can0 566#0000
(1735395799.626443) can0 567#660300000000
(1735395799.626444) can0 660#000004
(1735395799.626724) can0 661#00000000
(1735395799.626727) can0 662#00000000
(1735395799.628521) can0 670#000004
(1735395799.628523) can0 671#00000000
(1735395799.628524) can0 672#00000000
(1735395799.630827) can0 660#000004
(1735395799.630830) can0 661#00000000
(1735395799.630831) can0 662#00000000
(1735395799.632614) can0 670#000004
(1735395799.632617) can0 671#00000000
(1735395799.632619) can0 672#00000000
(1735395799.634519) can0 660#000004
(1735395799.634521) can0 661#00000000
(1735395799.634523) can0 662#00000000
(1735395799.634524) can0 560#4000010001
(1735395799.636405) can0 561#030208
(1735395799.636407) can0 562#7B002E0101000000
(1735395799.636409) can0 563#D0DEC8C8C5
(1735395799.636411) can0 564#1A15
(1735395799.636413) can0 565#74010000
(1735395799.636415) can0 566#0000
(1735395799.636650) can0 567#660300000000
(1735395799.636653) can0 670#000004
(1735395799.636656) can0 671#00000000
(1735395799.636657) can0 672#00000000
(1735395799.638514) can0 660#000004
(1735395799.638518) can0 661#00000000
(1735395799.638519) can0 662#00000000
(1735395799.641238) can0 670#000004
(1735395799.641241) can0 671#00000000
(1735395799.641243) can0 672#00000000
(1735395799.643314) can0 660#000004
(1735395799.643316) can0 661#00000000
(1735395799.643318) can0 662#00000000
(1735395799.645625) can0 670#000004
(1735395799.645628) can0 671#00000000
(1735395799.645629) can0 672#00000000
(1735395799.645631) can0 560#4A00010001
(1735395799.645670) can0 561#030208
(1735395799.645672) can0 562#7800EAFF02000000
(1735395799.645674) can0 565#74010000
(1735395799.645676) can0 566#0000
(1735395799.645678) can0 567#660300000000
(1735395799.647376) can0 660#000004
(1735395799.647379) can0 661#00000000
(1735395799.647381) can0 662#00000000
(1735395799.649729) can0 670#000004
(1735395799.649731) can0 671#00000000
(1735395799.649733) can0 672#00000000
(1735395799.651917) can0 660#000004
(1735395799.651920) can0 661#00000000
(1735395799.651922) can0 662#00000000
(1735395799.652710) can0 670#000004
(1735395799.652713) can0 671#00000000
(1735395799.652714) can0 672#00000000
(1735395799.655005) can0 660#000004
(1735395799.655008) can0 661#00000000
(1735395799.655010) can0 662#00000000
(1735395799.655012) can0 560#5400010001
(1735395799.655605) can0 561#030208
(1735395799.655608) can0 562#60FFB6FF01000000
(1735395799.655609) can0 565#74010000
(1735395799.655612) can0 566#0000
(1735395799.655614) can0 567#660300000000
(1735395799.657382) can0 670#000004
(1735395799.657384) can0 671#00000000
(1735395799.657386) can0 672#00000000
(1735395799.658651) can0 660#000004
(1735395799.658654) can0 661#00000000
(1735395799.658655) can0 662#00000000
(1735395799.660568) can0 670#000004
(1735395799.660570) can0 671#00000000
(1735395799.660572) can0 672#00000000
(1735395799.663313) can0 660#000004
(1735395799.663316) can0 661#00000000
(1735395799.663317) can0 662#00000000
(1735395799.664664) can0 670#000004
(1735395799.664666) can0 671#00000000
(1735395799.664668) can0 672#00000000
(1735395799.664670) can0 560#5E00010001
(1735395799.666789) can0 561#030208
(1735395799.666793) can0 562#AC00480002000000
(1735395799.666795) can0 565#74010000
(1735395799.666797) can0 566#0000
(1735395799.666799) can0 567#660300000000
(1735395799.666801) can0 660#000004
(1735395799.666846) can0 661#00000000
(1735395799.666850) can0 662#00000000
(1735395799.668498) can0 670#000004
(1735395799.668501) can0 671#00000000
(1735395799.668503) can0 672#00000000
(1735395799.671288) can0 660#000004
(1735395799.671290) can0 661#00000000
(1735395799.671292) can0 662#00000000
(1735395799.672669) can0 670#000004
(1735395799.672672) can0 671#00000000
(1735395799.672673) can0 672#00000000
(1735395799.674656) can0 660#000004
(1735395799.674659) can0 661#00000000
(1735395799.674660) can0 662#00000000
(1735395799.674662) can0 560#6800010001
(1735395799.676639) can0 561#030208
(1735395799.676641) can0 562#6500D70003000000
(1735395799.676643) can0 565#74010000
(1735395799.676645) can0 566#0000
(1735395799.676647) can0 567#660300000000
(1735395799.676687) can0 670#000004
(1735395799.676689) can0 671#00000000
(1735395799.676691) can0 672#00000000
(1735395799.679037) can0 660#000004
(1735395799.679040) can0 661#00000000
(1735395799.679042) can0 662#00000000
(1735395799.681377) can0 670#000004
(1735395799.681380) can0 671#00000000
(1735395799.681381) can0 672#00000000
(1735395799.683831) can0 660#000004
(1735395799.683834) can0 661#00000000
(1735395799.683836) can0 662#00000000
(1735395799.684515) can0 670#000004
(1735395799.684517) can0 671#00000000
(1735395799.684518) can0 672#00000000
(1735395799.684520) can0 560#7200010001
(1735395799.685687) can0 561#030208
(1735395799.685690) can0 562#15006F0002000000
(1735395799.685691) can0 565#74010000
(1735395799.685694) can0 566#0000
(1735395799.685696) can0 567#660300000000
(1735395799.685697) can0 660#000004
(1735395799.687938) can0 661#00000000
(1735395799.687942) can0 662#00000000
(1735395799.688510) can0 670#000004
(1735395799.688513) can0 671#00000000
(1735395799.688514) can0 672#00000000
(1735395799.690583) can0 660#000004
(1735395799.690585) can0 661#00000000
(1735395799.690588) can0 662#00000000
(1735395799.692561) can0 670#000004
(1735395799.692563) can0 671#00000000
(1735395799.692564) can0 672#00000000
(1735395799.694514) can0 660#000004
(1735395799.694517) can0 661#00000000
(1735395799.694519) can0 662#00000000
(1735395799.694520) can0 560#7C00010001
(1735395799.696296) can0 561#030208
(1735395799.696299) can0 562#2EFFC3FF04000000
(1735395799.696300) can0 565#74010000
(1735395799.696302) can0 566#0000
(1735395799.696304) can0 567#660300000000
(1735395799.696660) can0 670#000004
(1735395799.696662) can0 671#00000000
(1735395799.696665) can0 672#00000000
(1735395799.699196) can0 660#000004
(1735395799.699198) can0 661#00000000
(1735395799.699199) can0 662#00000000
(1735395799.701525) can0 670#000004
(1735395799.701529) can0 671#00000000
(1735395799.701530) can0 672#00000000
(1735395799.703799) can0 660#000004
(1735395799.703801) can0 661#00000000
(1735395799.703803) can0 662#00000000
(1735395799.704614) can0 670#000004
(1735395799.704617) can0 671#00000000
(1735395799.704619) can0 672#00000000
(1735395799.704620) can0 560#8600010001
(1735395799.706767) can0 561#030208
(1735395799.706770) can0 562#1C008C0003000000
(1735395799.706771) can0 565#74010000
(1735395799.706773) can0 566#0000
(1735395799.706775) can0 567#660300000000
(1735395799.706777) can0 660#000004
(1735395799.706816) can0 661#00000000
(1735395799.706819) can0 662#00000000
(1735395799.708533) can0 670#000004
(1735395799.708537) can0 671#00000000
(1735395799.708539) can0 672#00000000
(1735395799.711408) can0 660#000004
(1735395799.711410) can0 661#00000000
(1735395799.711412) can0 662#00000000
(1735395799.712667) can0 670#000004
(1735395799.712670) can0 671#00000000
(1735395799.712671) can0 672#00000000
(1735395799.714523) can0 660#000004
(1735395799.714525) can0 661#00000000
(1735395799.714526) can0 662#00000000
(1735395799.714528) can0 560#9000010001
(1735395799.715685) can0 561#030208
(1735395799.715687) can0 562#4AFF5EFF02000000
(1735395799.715688) can0 565#74010000
(1735395799.715691) can0 566#0000
(1735395799.715693) can0 567#660300000000
(1735395799.715694) can0 670#000004
(1735395799.717384) can0 671#00000000
(1735395799.717387) can0 672#00000000
(1735395799.719311) can0 660#000004
(1735395799.719314) can0 661#00000000
(1735395799.719315) can0 662#00000000
(1735395799.721756) can0 670#000004
(1735395799.721758) can0 671#00000000
(1735395799.721760) can0 672#00000000
(1735395799.723734) can0 660#000004
(1735395799.723737) can0 661#00000000
(1735395799.723738) can0 662#00000000
(1735395799.725736) can0 670#000004
(1735395799.725739) can0 671#00000000
(1735395799.725741) can0 672#00000000
(1735395799.725742) can0 560#9A00010001
(1735395799.725781) can0 561#030208
(1735395799.725783) can0 562#42FF41FF02000000
(1735395799.725784) can0 565#74010000
(1735395799.725787) can0 566#0000
(1735395799.725789) can0 567#660300000000
(1735395799.727581) can0 660#000004
(1735395799.727585) can0 661#00000000
(1735395799.727588) can0 662#00000000
(1735395799.728668) can0 670#000004
(1735395799.728672) can0 671#00000000
(1735395799.728673) can0 672#00000000
(1735395799.730705) can0 660#000004
(1735395799.730708) can0 661#00000000
(1735395799.730710) can0 662#00000000
(1735395799.733287) can0 670#000004
(1735395799.733290) can0 671#00000000
(1735395799.733291) can0 672#00000000
(1735395799.734663) can0 660#000004
(1735395799.734666) can0 661#00000000
(1735395799.734667) can0 662#00000000
(1735395799.734670) can0 560#A400010001
(1735395799.736384) can0 561#030208
(1735395799.736387) can0 562#86FED6FE01000000
(1735395799.736389) can0 563#D0DEC8C9C4
(1735395799.736392) can0 564#1A15
(1735395799.736393) can0 565#74010000
(1735395799.736395) can0 566#0000
(1735395799.736640) can0 567#660300000000
(1735395799.736647) can0 670#000004
(1735395799.736649) can0 671#00000000
(1735395799.736651) can0 672#00000000
(1735395799.738658) can0 660#000004
(1735395799.738661) can0 661#00000000
(1735395799.738663) can0 662#00000000
(1735395799.740521) can0 670#000004
(1735395799.740524) can0 671#00000000
(1735395799.740527) can0 672#00000000
(1735395799.743317) can0 660#000004
(1735395799.743321) can0 661#00000000
(1735395799.743323) can0 662#00000000
(1735395799.745596) can0 670#000004
(1735395799.745599) can0 671#00000000
(1735395799.745602) can0 672#00000000
(1735395799.745603) can0 560#AE00010001
(1735395799.745646) can0 561#030208
(1735395799.745649) can0 562#76FFA0FF06000000
(1735395799.745651) can0 565#74010000
(1735395799.745652) can0 566#0000
(1735395799.745655) can0 567#660300000000
(1735395799.745657) can0 660#000004
(1735395799.747934) can0 661#00000000
(1735395799.747942) can0 662#00000000
(1735395799.748509) can0 670#000004
(1735395799.748512) can0 671#00000000
(1735395799.748514) can0 672#00000000
(1735395799.750559) can0 660#000004
(1735395799.750562) can0 661#00000000
(1735395799.750565) can0 662#00000000
(1735395799.752514) can0 670#000004
(1735395799.752518) can0 671#00000000
(1735395799.752519) can0 672#00000000
(1735395799.754666) can0 660#000004
(1735395799.754670) can0 661#00000000
(1735395799.754672) can0 662#00000000
(1735395799.754673) can0 560#B800010001
(1735395799.756787) can0 561#030208
(1735395799.756790) can0 562#5400C5FF00000000
(1735395799.756792) can0 565#74010000
(1735395799.756793) can0 566#0000
(1735395799.756795) can0 567#660300000000
(1735395799.756835) can0 670#000004
(1735395799.756838) can0 671#00000000
(1735395799.756840) can0 672#00000000
(1735395799.758581) can0 660#000004
(1735395799.758584) can0 661#00000000
(1735395799.758587) can0 662#00000000
(1735395799.761289) can0 670#000004
(1735395799.761291) can0 671#00000000
(1735395799.761293) can0 672#00000000
(1735395799.762656) can0 660#000004
(1735395799.762659) can0 661#00000000
(1735395799.762660) can0 662#00000000
(1735395799.764520) can0 670#000004
(1735395799.764523) can0 671#00000000
(1735395799.764525) can0 672#00000000
(1735395799.764527) can0 560#C200010001
(1735395799.765700) can0 561#030208
(1735395799.765702) can0 562#D7FE3DFF05000000
(1735395799.765704) can0 565#74010000
(1735395799.765706) can0 566#0000
(1735395799.765709) can0 567#660300000000
(1735395799.765711) can0 660#000004
(1735395799.767370) can0 661#00000000
(1735395799.767373) can0 662#00000000
(1735395799.768642) can0 670#000004
(1735395799.768646) can0 671#00000000
(1735395799.768647) can0 672#00000000
(1735395799.770544) can0 660#000004
(1735395799.770547) can0 661#00000000
(1735395799.770548) can0 662#00000000
(1735395799.772522) can0 670#000004
(1735395799.772525) can0 671#00000000
(1735395799.772526) can0 672#00000000
(1735395799.774780) can0 660#000004
(1735395799.774782) can0 661#00000000
(1735395799.774785) can0 662#00000000
(1735395799.774790) can0 560#CC00010001
(1735395799.776458) can0 561#030208
(1735395799.776461) can0 562#AB00490001000000
(1735395799.776463) can0 565#74010000
(1735395799.776465) can0 566#0000
(1735395799.776468) can0 567#660300000000
(1735395799.776470) can0 670#000004
(1735395799.776701) can0 671#00000000
(1735395799.776703) can0 672#00000000
(1735395799.778844) can0 660#000004
(1735395799.778847) can0 661#00000000
(1735395799.778848) can0 662#00000000
(1735395799.780531) can0 670#000004
(1735395799.780534) can0 671#00000000
(1735395799.780536) can0 672#00000000
(1735395799.783382) can0 660#000004
(1735395799.783384) can0 661#00000000
(1735395799.783387) can0 662#00000000
(1735395799.784660) can0 670#000004
(1735395799.784663) can0 671#00000000
(1735395799.784665) can0 672#00000000
(1735395799.784667) can0 560#D600010001
(1735395799.785722) can0 561#030208
(1735395799.785726) can0 562#3800280002000000
(1735395799.785728) can0 565#74010000
(1735395799.785729) can0 566#0000
(1735395799.785731) can0 567#660300000000
(1735395799.787296) can0 660#000004
(1735395799.787298) can0 661#00000000
(1735395799.787300) can0 662#00000000
(1735395799.788659) can0 670#000004
(1735395799.788661) can0 671#00000000
(1735395799.788664) can0 672#00000000
(1735395799.791004) can0 660#000004
(1735395799.791007) can0 661#00000000
(1735395799.791009) can0 662#00000000
(1735395799.793311) can0 670#000004
(1735395799.793313) can0 671#00000000
(1735395799.793315) can0 672#00000000
(1735395799.795623) can0 660#000004
(1735395799.795625) can0 661#00000000
(1735395799.795627) can0 662#00000000
(1735395799.795629) can0 560#E000010001
(1735395799.795668) can0 561#030208
(1735395799.795674) can0 562#7DFFBDFF05000000
(1735395799.795676) can0 565#74010000
(1735395799.795678) can0 566#0000
(1735395799.795680) can0 567#660300000000
(1735395799.795682) can0 670#000004
(1735395799.797913) can0 671#00000000
(1735395799.797916) can0 672#00000000
(1735395799.798488) can0 660#000004
(1735395799.798491) can0 661#00000000
(1735395799.798493) can0 662#00000000
(1735395799.800738) can0 670#000004
(1735395799.800741) can0 671#00000000
(1735395799.800742) can0 672#00000000
(1735395799.803089) can0 660#000004
(1735395799.803092) can0 661#00000000
(1735395799.803093) can0 662#00000000
(1735395799.805362) can0 670#000004
(1735395799.805365) can0 671#00000000
(1735395799.805367) can0 672#00000000
(1735395799.805368) can0 560#EA00010001
(1735395799.805516) can0 561#030208
(1735395799.805518) can0 562#6400D70003000000
(1735395799.805527) can0 565#74010000
(1735395799.805530) can0 566#0000
(1735395799.805532) can0 567#660300000000
(1735395799.805534) can0 660#000004
(1735395799.807788) can0 661#00000000
(1735395799.807792) can0 662#00000000
(1735395799.809362) can0 670#000004
(1735395799.809366) can0 671#00000000
(1735395799.809369) can0 672#00000000
(1735395799.810516) can0 660#000004
(1735395799.810520) can0 661#00000000
(1735395799.810521) can0 662#00000000
(1735395799.813251) can0 670#000004
(1735395799.813254) can0 671#00000000
(1735395799.813256) can0 672#00000000
(1735395799.815575) can0 660#000004
(1735395799.815578) can0 661#00000000
(1735395799.815580) can0 662#00000000
(1735395799.815581) can0 560#F400010001
(1735395799.815622) can0 561#030208
(1735395799.815624) can0 562#46008AFF03000000
(1735395799.815627) can0 565#74010000
(1735395799.815628) can0 566#0000
(1735395799.815631) can0 567#660300000000
(1735395799.815633) can0 670#000004
(1735395799.817943) can0 671#00000000
(1735395799.817946) can0 672#00000000
(1735395799.818484) can0 660#000004
(1735395799.818487) can0 661#00000000
(1735395799.818488) can0 662#00000000
(1735395799.820787) can0 670#000004
(1735395799.820789) can0 671#00000000
(1735395799.820792) can0 672#00000000
(1735395799.823062) can0 660#000004
(1735395799.823064) can0 661#00000000
(1735395799.823066) can0 662#00000000
(1735395799.825389) can0 670#000004
(1735395799.825392) can0 671#00000000
(1735395799.825394) can0 672#00000000
(1735395799.825395) can0 560#FE00010001
(1735395799.825517) can0 561#030208
(1735395799.825519) can0 562#5500300003000000
(1735395799.825529) can0 565#74010000
(1735395799.825532) can0 566#0000
(1735395799.825534) can0 567#660300000000
(1735395799.825536) can0 660#000004
(1735395799.827919) can0 661#00000000
(1735395799.827921) can0 662#00000000
(1735395799.828484) can0 670#000004
(1735395799.828486) can0 671#00000000
(1735395799.828487) can0 672#00000000
(1735395799.830536) can0 660#000004
(1735395799.830538) can0 661#00000000
(1735395799.830539) can0 662#00000000
(1735395799.832522) can0 670#000004
(1735395799.832524) can0 671#00000000
(1735395799.832526) can0 672#00000000
(1735395799.834467) can0 660#000004
(1735395799.834470) can0 661#00000000
(1735395799.834471) can0 662#00000000
(1735395799.834473) can0 560#0801010001
(1735395799.836382) can0 561#030208
(1735395799.836384) can0 562#BA00830003000000
(1735395799.836386) can0 563#D0DEC8C8C5
(1735395799.836388) can0 564#1A15
(1735395799.836389) can0 565#74010000
(1735395799.836390) can0 566#0000
(1735395799.836624) can0 567#660300000000
(1735395799.836627) can0 670#000004
(1735395799.836628) can0 671#00000000
(1735395799.836630) can0 672#00000000
(1735395799.838470) can0 660#000004
(1735395799.838473) can0 661#00000000
(1735395799.838475) can0 662#00000000
(1735395799.840655) can0 670#000004
(1735395799.840657) can0 671#00000000
(1735395799.840659) can0 672#00000000
(1735395799.842466) can0 660#000004
(1735395799.842469) can0 661#00000000
(1735395799.842470) can0 662#00000000
(1735395799.844513) can0 670#000004
(1735395799.844515) can0 671#00000000
(1735395799.844517) can0 672#00000000
(1735395799.844519) can0 560#1201010001
(1735395799.846797) can0 561#030208
(1735395799.846800) can0 562#4700620000000000
(1735395799.846803) can0 565#74010000
(1735395799.846805) can0 566#0000
(1735395799.846806) can0 567#660300000000
(1735395799.846807) can0 660#000004
(1735395799.846848) can0 661#00000000
(1735395799.846850) can0 662#00000000
(1735395799.848473) can0 670#000004
(1735395799.848476) can0 671#00000000
(1735395799.848478) can0 672#00000000
(1735395799.851287) can0 660#000004
(1735395799.851290) can0 661#00000000
(1735395799.851291) can0 662#00000000
(1735395799.852499) can0 670#000004
(1735395799.852502) can0 671#00000000
(1735395799.852504) can0 672#00000000
(1735395799.854469) can0 660#000004
(1735395799.854471) can0 661#00000000
(1735395799.854472) can0 662#00000000
(1735395799.854474) can0 560#1C01010001
(1735395799.855709) can0 561#030208
(1735395799.855712) can0 562#93FF140002000000
(1735395799.855714) can0 565#74010000
(1735395799.855716) can0 566#0000
(1735395799.855718) can0 567#660300000000
(1735395799.857860) can0 670#000004
(1735395799.857863) can0 671#00000000
(1735395799.857865) can0 672#00000000
(1735395799.858674) can0 660#000004
(1735395799.858676) can0 661#00000000
(1735395799.858677) can0 662#00000000
(1735395799.861725) can0 670#000004
(1735395799.861729) can0 671#00000000
(1735395799.861730) can0 672#00000000
(1735395799.863859) can0 660#000004
(1735395799.863861) can0 661#00000000
(1735395799.863863) can0 662#00000000
(1735395799.864634) can0 670#000004
(1735395799.864637) can0 671#00000000
(1735395799.864639) can0 672#00000000
(1735395799.864640) can0 560#2601010001
(1735395799.866297) can0 561#030208
(1735395799.866299) can0 562#C800E5FF05000000
(1735395799.866301) can0 565#74010000
(1735395799.866303) can0 566#0000
(1735395799.866305) can0 567#660300000000
(1735395799.866585) can0 660#000004
(1735395799.866587) can0 661#00000000
(1735395799.866589) can0 662#00000000
(1735395799.868544) can0 670#000004
(1735395799.868547) can0 671#00000000
(1735395799.868549) can0 672#00000000
(1735395799.871291) can0 660#000004
(1735395799.871294) can0 661#00000000
(1735395799.871295) can0 662#00000000
(1735395799.872646) can0 670#000004
(1735395799.872649) can0 671#00000000
(1735395799.872651) can0 672#00000000
(1735395799.874542) can0 660#000004
(1735395799.874545) can0 661#00000000
(1735395799.874546) can0 662#00000000
(1735395799.874547) can0 560#3001010001
(1735395799.876419) can0 561#030208
(1735395799.876423) can0 562#DE003C0003000000
(1735395799.876424) can0 565#74010000
(1735395799.876427) can0 566#0000
(1735395799.876429) can0 567#660300000000
(1735395799.876594) can0 670#000004
(1735395799.876596) can0 671#00000000
(1735395799.876598) can0 672#00000000
(1735395799.878505) can0 660#000004
(1735395799.878507) can0 661#00000000
(1735395799.878509) can0 662#00000000
(1735395799.881224) can0 670#000004
(1735395799.881226) can0 671#00000000
(1735395799.881228) can0 672#00000000
(1735395799.883661) can0 660#000004
(1735395799.883665) can0 661#00000000
(1735395799.883666) can0 662#00000000
(1735395799.885663) can0 670#000004
(1735395799.885666) can0 671#00000000
(1735395799.885667) can0 672#00000000
(1735395799.885669) can0 560#3A01010001
(1735395799.885709) can0 561#030208
(1735395799.885711) can0 562#CCFFB9FF03000000
(1735395799.885712) can0 565#74010000
(1735395799.885714) can0 566#0000
(1735395799.885716) can0 567#660300000000
(1735395799.887407) can0 660#000004
(1735395799.887410) can0 661#00000000
(1735395799.887412) can0 662#00000000
(1735395799.889297) can0 670#000004
(1735395799.889299) can0 671#00000000
(1735395799.889301) can0 672#00000000
(1735395799.891961) can0 660#000004
(1735395799.891964) can0 661#00000000
(1735395799.891966) can0 662#00000000
(1735395799.892703) can0 670#000004
(1735395799.892706) can0 671#00000000
(1735395799.892709) can0 672#00000000
(1735395799.894560) can0 660#000004
(1735395799.894562) can0 661#00000000
(1735395799.894565) can0 662#00000000
(1735395799.894566) can0 560#4401010001
(1735395799.896383) can0 561#030208
(1735395799.896386) can0 562#B7FFCEFF02000000
(1735395799.896388) can0 565#74010000
(1735395799.896390) can0 566#0000
(1735395799.896392) can0 567#660300000000
(1735395799.896649) can0 670#000004
(1735395799.896655) can0 671#00000000
(1735395799.896657) can0 672#00000000
(1735395799.898469) can0 660#000004
(1735395799.898471) can0 661#00000000
(1735395799.898472) can0 662#00000000
(1735395799.900665) can0 670#000004
(1735395799.900668) can0 671#00000000
(1735395799.900670) can0 672#00000000
(1735395799.902933) can0 660#000004
(1735395799.902936) can0 661#00000000
(1735395799.902937) can0 662#00000000
(1735395799.904438) can0 670#000004
(1735395799.904442) can0 671#00000000
(1735395799.904443) can0 672#00000000
(1735395799.904444) can0 560#4E01010001
(1735395799.906382) can0 561#030208
(1735395799.906384) can0 562#4F00EC0001000000
(1735395799.906386) can0 565#74010000
(1735395799.906388) can0 566#0000
(1735395799.906390) can0 567#660300000000
(1735395799.906391) can0 660#000004
(1735395799.906649) can0 661#00000000
(1735395799.906652) can0 662#00000000
(1735395799.908546) can0 670#000004
(1735395799.908549) can0 671#00000000
(1735395799.908551) can0 672#00000000
(1735395799.911310) can0 660#000004
(1735395799.911312) can0 661#00000000
(1735395799.911313) can0 662#00000000
(1735395799.912497) can0 670#000004
(1735395799.912501) can0 671#00000000
(1735395799.912502) can0 672#00000000
(1735395799.914467) can0 660#000004
(1735395799.914469) can0 661#00000000
(1735395799.914471) can0 662#00000000
(1735395799.914472) can0 560#5801010001
(1735395799.916400) can0 561#030208
(1735395799.916402) can0 562#84FF6EFF02000000
(1735395799.916404) can0 565#74010000
(1735395799.916406) can0 566#0000
(1735395799.916408) can0 567#660300000000
(1735395799.916409) can0 670#000004
(1735395799.916655) can0 671#00000000
(1735395799.916659) can0 672#00000000
(1735395799.918547) can0 660#000004
(1735395799.918549) can0 661#00000000
(1735395799.918552) can0 662#00000000
(1735395799.920489) can0 670#000004
(1735395799.920501) can0 671#00000000
(1735395799.920504) can0 672#00000000
(1735395799.923387) can0 660#000004
(1735395799.923390) can0 661#00000000
(1735395799.923392) can0 662#00000000
(1735395799.924484) can0 670#000004
(1735395799.924486) can0 671#00000000
(1735395799.924488) can0 672#00000000
(1735395799.924493) can0 560#6201010001
(1735395799.926631) can0 561#030208
(1735395799.926635) can0 562#8CFFF8FF03000000
(1735395799.926637) can0 565#74010000
(1735395799.926639) can0 566#0000
(1735395799.926641) can0 567#660300000000
(1735395799.926643) can0 660#000004
(1735395799.926683) can0 661#00000000
(1735395799.926686) can0 662#00000000
(1735395799.929041) can0 670#000004
(1735395799.929044) can0 671#00000000
(1735395799.929046) can0 672#00000000
(1735395799.931448) can0 660#000004
(1735395799.931450) can0 661#00000000
(1735395799.931452) can0 662#00000000
(1735395799.932671) can0 670#000004
(1735395799.932673) can0 671#00000000
(1735395799.932675) can0 672#00000000
(1735395799.934657) can0 660#000004
(1735395799.934659) can0 661#00000000
(1735395799.934661) can0 662#00000000
(1735395799.934663) can0 560#6C01010001
(1735395799.936405) can0 561#030208
(1735395799.936407) can0 562#35FF73FF02000000
(1735395799.936409) can0 563#D0DEC8C8C4
(1735395799.936412) can0 564#1A15
(1735395799.936414) can0 565#74010000
(1735395799.936417) can0 566#0000
(1735395799.936572) can0 567#660300000000
(1735395799.936575) can0 670#000004
(1735395799.936577) can0 671#00000000
(1735395799.936582) can0 672#00000000
(1735395799.938555) can0 660#000004
(1735395799.938559) can0 661#00000000
(1735395799.938562) can0 662#00000000
(1735395799.941286) can0 670#000004
(1735395799.941290) can0 671#00000000
(1735395799.941293) can0 672#00000000
(1735395799.942662) can0 660#000004
(1735395799.942666) can0 661#00000000
(1735395799.942669) can0 662#00000000
(1735395799.944539) can0 670#000004
(1735395799.944543) can0 671#00000000
(1735395799.944545) can0 672#00000000
(1735395799.944547) can0 560#7601010001
(1735395799.946790) can0 561#030208
(1735395799.946794) can0 562#290082FF02000000
(1735395799.946799) can0 565#74010000
(1735395799.946801) can0 566#0000
(1735395799.946802) can0 567#660300000000
(1735395799.946843) can0 660#000004
(1735395799.946846) can0 661#00000000
(1735395799.946848) can0 662#00000000
(1735395799.949207) can0 670#000004
(1735395799.949211) can0 671#00000000
(1735395799.949214) can0 672#00000000
(1735395799.950665) can0 660#000004
(1735395799.950668) can0 661#00000000
(1735395799.950670) can0 662#00000000
(1735395799.952521) can0 670#000004
(1735395799.952523) can0 671#00000000
(1735395799.952525) can0 672#00000000
(1735395799.954544) can0 660#000004
(1735395799.954547) can0 661#00000000
(1735395799.954548) can0 662#00000000
(1735395799.954551) can0 560#8001010001
(1735395799.956382) can0 561#030208
(1735395799.956384) can0 562#AB00DDFF01000000
(1735395799.956386) can0 565#74010000
(1735395799.956389) can0 566#0000
(1735395799.956391) can0 567#660300000000
(1735395799.956540) can0 670#000004
(1735395799.956542) can0 671#00000000
(1735395799.956545) can0 672#00000000
(1735395799.959243) can0 660#000004
(1735395799.959247) can0 661#00000000
(1735395799.959249) can0 662#00000000
(1735395799.961783) can0 670#000004
(1735395799.961785) can0 671#00000000
(1735395799.961787) can0 672#00000000
(1735395799.963707) can0 660#000004
(1735395799.963709) can0 661#00000000
(1735395799.963711) can0 662#00000000
(1735395799.964637) can0 670#000004
(1735395799.964639) can0 671#00000000
(1735395799.964641) can0 672#00000000
(1735395799.964644) can0 560#8A01010001
(1735395799.965702) can0 561#030208
(1735395799.965705) can0 562#2200D1FF01000000
(1735395799.965706) can0 565#74010000
(1735395799.965709) can0 566#0000
(1735395799.965712) can0 567#660300000000
(1735395799.967383) can0 660#000004
(1735395799.967386) can0 661#00000000
(1735395799.967388) can0 662#00000000
(1735395799.968500) can0 670#000004
(1735395799.968503) can0 671#00000000
(1735395799.968504) can0 672#00000000
(1735395799.970665) can0 660#000004
(1735395799.970667) can0 661#00000000
(1735395799.970669) can0 662#00000000
(1735395799.973225) can0 670#000004
(1735395799.973228) can0 671#00000000
(1735395799.973229) can0 672#00000000
(1735395799.974487) can0 660#000004
(1735395799.974489) can0 661#00000000
(1735395799.974491) can0 662#00000000
(1735395799.974494) can0 560#9401010001
(1735395799.976435) can0 561#030208
(1735395799.976438) can0 562#05005DFF02000000
(1735395799.976439) can0 565#74010000
(1735395799.976442) can0 566#0000
(1735395799.976445) can0 567#660300000000
(1735395799.976447) can0 670#000004
(1735395799.976590) can0 671#00000000
(1735395799.976593) can0 672#00000000
(1735395799.978536) can0 660#000004
(1735395799.978540) can0 661#00000000
(1735395799.978542) can0 662#00000000
(1735395799.980556) can0 670#000004
(1735395799.980559) can0 671#00000000
(1735395799.980560) can0 672#00000000
(1735395799.983889) can0 660#000004
(1735395799.983892) can0 661#00000000
(1735395799.983893) can0 662#00000000
(1735395799.984618) can0 670#000004
(1735395799.984621) can0 671#00000000
(1735395799.984622) can0 672#00000000
(1735395799.984625) can0 560#9E01010001
(1735395799.986403) can0 561#030208
(1735395799.986405) can0 562#A8FF93FF01000000
(1735395799.986407) can0 565#74010000
(1735395799.986410) can0 566#0000
(1735395799.986412) can0 567#660300000000
(1735395799.986414) can0 660#000004
(1735395799.986590) can0 661#00000000
(1735395799.986593) can0 662#00000000
(1735395799.988517) can0 670#000004
(1735395799.988520) can0 671#00000000
(1735395799.988523) can0 672#00000000
(1735395799.990542) can0 660#000004
(1735395799.990545) can0 661#00000000
(1735395799.990546) can0 662#00000000
(1735395799.992663) can0 670#000004
(1735395799.992665) can0 671#00000000
(1735395799.992667) can0 672#00000000
(1735395799.994530) can0 660#000004
(1735395799.994532) can0 661#00000000
(1735395799.994534) can0 662#00000000
(1735395799.994537) can0 560#A801010001
(1735395799.996784) can0 561#030208
(1735395799.996786) can0 562#10FFE1FE02000000
(1735395799.996788) can0 565#74010000
(1735395799.996791) can0 566#0000
(1735395799.996793) can0 567#660300000000
(1735395799.996833) can0 670#000004
(1735395799.996836) can0 671#00000000
(1735395799.996838) can0 672#00000000
(1735395799.998474) can0 660#000004
(1735395799.998479) can0 661#00000000
(1735395799.998481) can0 662#00000000
(1735395800.000491) can0 670#000004
(1735395800.000495) can0 671#00000000
(1735395800.000497) can0 672#00000000
(1735395800.003286) can0 660#000004
(1735395800.003290) can0 661#00000000
(1735395800.003293) can0 662#00000000
(1735395800.005296) can0 670#000004
(1735395800.005300) can0 671#00000000
(1735395800.005302) can0 672#00000000
(1735395800.005304) can0 560#B201010001
(1735395800.005528) can0 561#030208
(1735395800.005531) can0 562#5500300003000000
(1735395800.005532) can0 565#74010000
(1735395800.005533) can0 566#0000
(1735395800.005535) can0 567#660300000000
(1735395800.007714) can0 660#000004
(1735395800.007716) can0 661#00000000
(1735395800.007718) can0 662#00000000
(1735395800.009286) can0 670#000004
(1735395800.009289) can0 671#00000000
(1735395800.009291) can0 672#00000000
(1735395800.010517) can0 660#000004
(1735395800.010519) can0 661#00000000
(1735395800.010520) can0 662#00000000
(1735395800.012518) can0 670#000004
(1735395800.012520) can0 671#00000000
(1735395800.012522) can0 672#00000000
(1735395800.014451) can0 660#000004
(1735395800.014454) can0 661#00000000
(1735395800.014455) can0 662#00000000
(1735395800.014458) can0 560#BC01010001
(1735395800.016297) can0 561#030208
(1735395800.016300) can0 562#C5FF9CFF00000000
(1735395800.016302) can0 565#74010000
(1735395800.016304) can0 566#0000
(1735395800.016306) can0 567#660300000000
(1735395800.016308) can0 670#000004
(1735395800.016580) can0 671#00000000
(1735395800.016583) can0 672#00000000
(1735395800.019220) can0 660#000004
(1735395800.019223) can0 661#00000000
(1735395800.019224) can0 662#00000000
(1735395800.021381) can0 670#000004
(1735395800.021384) can0 671#00000000
(1735395800.021385) can0 672#00000000
(1735395800.022639) can0 660#000004
(1735395800.022641) can0 661#00000000
(1735395800.022642) can0 662#00000000
(1735395800.024531) can0 670#000004
(1735395800.024533) can0 671#00000000
(1735395800.024534) can0 672#00000000
(1735395800.024538) can0 560#C601010001
(1735395800.026388) can0 561#030208
(1735395800.026391) can0 562#68FFD2FF00000000
(1735395800.026393) can0 565#74010000
(1735395800.026399) can0 566#0000
(1735395800.026402) can0 567#660300000000
(1735395800.026553) can0 660#000004
(1735395800.026556) can0 661#00000000
(1735395800.026559) can0 662#00000000
(1735395800.029239) can0 670#000004
(1735395800.029243) can0 671#00000000
(1735395800.029245) can0 672#00000000
(1735395800.031482) can0 660#000004
(1735395800.031484) can0 661#00000000
(1735395800.031486) can0 662#00000000
(1735395800.033692) can0 670#000004
(1735395800.033694) can0 671#00000000
(1735395800.033695) can0 672#00000000
(1735395800.034604) can0 660#000004
(1735395800.034608) can0 661#00000000
(1735395800.034610) can0 662#00000000
(1735395800.034612) can0 560#D001010001
(1735395800.036381) can0 561#030208
(1735395800.036385) can0 562#F400940000000000
(1735395800.036388) can0 563#D0DEC8C9C5
(1735395800.036389) can0 564#1A15
(1735395800.036392) can0 565#74010000
(1735395800.036394) can0 566#0000
(1735395800.036566) can0 567#660300000000
(1735395800.036571) can0 670#000004
(1735395800.036573) can0 671#00000000
(1735395800.036574) can0 672#00000000
(1735395800.038492) can0 660#000004
(1735395800.038495) can0 661#00000000
(1735395800.038496) can0 662#00000000
(1735395800.040664) can0 670#000004
(1735395800.040666) can0 671#00000000
(1735395800.040668) can0 672#00000000
(1735395800.043213) can0 660#000004
(1735395800.043215) can0 661#00000000
(1735395800.043217) can0 662#00000000
(1735395800.044459) can0 670#000004
(1735395800.044461) can0 671#00000000
(1735395800.044462) can0 672#00000000
(1735395800.044465) can0 560#DA01010001
(1735395800.046405) can0 561#030208
(1735395800.046407) can0 562#3F00DAFF02000000
(1735395800.046409) can0 565#74010000
(1735395800.046412) can0 566#0000
(1735395800.046413) can0 567#660300000000
(1735395800.046415) can0 660#000004
(1735395800.046589) can0 661#00000000
(1735395800.046592) can0 662#00000000
(1735395800.048447) can0 670#000004
(1735395800.048450) can0 671#00000000
(1735395800.048451) can0 672#00000000
(1735395800.050474) can0 660#000004
(1735395800.050476) can0 661#00000000
(1735395800.050478) can0 662#00000000
(1735395800.052492) can0 670#000004
(1735395800.052495) can0 671#00000000
(1735395800.052497) can0 672#00000000
(1735395800.055225) can0 660#000004
(1735395800.055227) can0 661#00000000
(1735395800.055229) can0 662#00000000
(1735395800.055232) can0 560#E401010001
(1735395800.055504) can0 561#030208
(1735395800.055506) can0 562#0500C9FF03000000
(1735395800.055508) can0 565#74010000
(1735395800.055510) can0 566#0000
(1735395800.055511) can0 567#660300000000
(1735395800.055513) can0 670#000004
(1735395800.057701) can0 671#00000000
(1735395800.057703) can0 672#00000000
(1735395800.058661) can0 660#000004
(1735395800.058664) can0 661#00000000
(1735395800.058665) can0 662#00000000
(1735395800.060561) can0 670#000004
(1735395800.060564) can0 671#00000000
(1735395800.060565) can0 672#00000000
(1735395800.062610) can0 660#000004
(1735395800.062613) can0 661#00000000
(1735395800.062614) can0 662#00000000
(1735395800.065249) can0 670#000004
(1735395800.065252) can0 671#00000000
(1735395800.065253) can0 672#00000000
(1735395800.065256) can0 560#EE01010001
(1735395800.065502) can0 561#030208
(1735395800.065505) can0 562#9700370103000000
(1735395800.065506) can0 565#74010000
(1735395800.065507) can0 566#0000
(1735395800.065509) can0 567#660300000000
(1735395800.065512) can0 660#000004
(1735395800.067858) can0 661#00000000
(1735395800.067862) can0 662#00000000
(1735395800.068551) can0 670#000004
(1735395800.068554) can0 671#00000000
(1735395800.068556) can0 672#00000000
(1735395800.070475) can0 660#000004
(1735395800.070477) can0 661#00000000
(1735395800.070479) can0 662#00000000
(1735395800.072556) can0 670#000004
(1735395800.072559) can0 671#00000000
(1735395800.072560) can0 672#00000000
(1735395800.074420) can0 660#000004
(1735395800.074423) can0 661#00000000
(1735395800.074425) can0 662#00000000
(1735395800.074429) can0 560#F801010001
(1735395800.075580) can0 561#030208
(1735395800.075582) can0 562#8F00410003000000
(1735395800.075584) can0 565#74010000
(1735395800.075586) can0 566#0000
(1735395800.075588) can0 567#660300000000
(1735395800.075589) can0 670#000004
(1735395800.076662) can0 671#00000000
(1735395800.076664) can0 672#00000000
(1735395800.078429) can0 660#000004
(1735395800.078432) can0 661#00000000
(1735395800.078433) can0 662#00000000
(1735395800.081287) can0 670#000004
(1735395800.081289) can0 671#00000000
(1735395800.081291) can0 672#00000000
(1735395800.083585) can0 660#000004
(1735395800.083588) can0 661#00000000
(1735395800.083589) can0 662#00000000
(1735395800.084475) can0 670#000004
(1735395800.084477) can0 671#00000000
(1735395800.084478) can0 672#00000000
(1735395800.084481) can0 560#0202010001
(1735395800.086271) can0 561#030208
(1735395800.086274) can0 562#03FFECFF03000000
(1735395800.086276) can0 565#74010000
(1735395800.086278) can0 566#0000
(1735395800.086279) can0 567#660300000000
(1735395800.086281) can0 660#000004
(1735395800.086734) can0 661#00000000
(1735395800.086737) can0 662#00000000
(1735395800.088524) can0 670#000004
(1735395800.088528) can0 671#00000000
(1735395800.088529) can0 672#00000000
(1735395800.091485) can0 660#000004
(1735395800.091488) can0 661#00000000
(1735395800.091490) can0 662#00000000
(1735395800.093299) can0 670#000004
(1735395800.093302) can0 671#00000000
(1735395800.093305) can0 672#00000000
(1735395800.094466) can0 660#000004
(1735395800.094468) can0 661#00000000
(1735395800.094471) can0 662#00000000
(1735395800.094472) can0 560#0C02010001
(1735395800.096382) can0 561#030208
(1735395800.096386) can0 562#C6FF070000000000
(1735395800.096387) can0 565#74010000
(1735395800.096389) can0 566#0000
(1735395800.096390) can0 567#660300000000
(1735395800.096393) can0 670#000004
(1735395800.096602) can0 671#00000000
(1735395800.096609) can0 672#00000000
(1735395800.098407) can0 660#000004
(1735395800.098410) can0 661#00000000
(1735395800.098413) can0 662#00000000
(1735395800.100479) can0 670#000004
(1735395800.100482) can0 671#00000000
(1735395800.100483) can0 672#00000000
(1735395800.102742) can0 660#000004
(1735395800.102745) can0 661#00000000
(1735395800.102746) can0 662#00000000
(1735395800.104519) can0 670#000004
(1735395800.104521) can0 671#00000000
(1735395800.104523) can0 672#00000000
(1735395800.104525) can0 560#1602010001
(1735395800.106367) can0 561#030208
(1735395800.106372) can0 562#3800280003000000
(1735395800.106373) can0 565#74010000
(1735395800.106376) can0 566#0000
(1735395800.106377) can0 567#660300000000
(1735395800.106379) can0 660#000004
(1735395800.106682) can0 661#00000000
(1735395800.106685) can0 662#00000000
(1735395800.108516) can0 670#000004
(1735395800.108520) can0 671#00000000
(1735395800.108521) can0 672#00000000
(1735395800.111307) can0 660#000004
(1735395800.111311) can0 661#00000000
(1735395800.111313) can0 662#00000000
(1735395800.112511) can0 670#000004
(1735395800.112513) can0 671#00000000
(1735395800.112515) can0 672#00000000
(1735395800.114525) can0 660#000004
(1735395800.114529) can0 661#00000000
(1735395800.114530) can0 662#00000000
(1735395800.114533) can0 560#2002010001
(1735395800.116332) can0 561#030208
(1735395800.116334) can0 562#A1FFE3FF04000000
(1735395800.116336) can0 565#74010000
(1735395800.116338) can0 566#0000
(1735395800.116340) can0 567#660300000000
(1735395800.116342) can0 670#000004
(1735395800.116666) can0 671#00000000
(1735395800.116668) can0 672#00000000
(1735395800.118416) can0 660#000004
(1735395800.118419) can0 661#00000000
(1735395800.118420) can0 662#00000000
(1735395800.120475) can0 670#000004
(1735395800.120479) can0 671#00000000
(1735395800.120480) can0 672#00000000
(1735395800.122495) can0 660#000004
(1735395800.122499) can0 661#00000000
(1735395800.122501) can0 662#00000000
(1735395800.124412) can0 670#000004
(1735395800.124416) can0 671#00000000
(1735395800.124417) can0 672#00000000
(1735395800.124419) can0 560#2A02010001
(1735395800.125569) can0 561#030208
(1735395800.125582) can0 562#6B00880003000000
(1735395800.125585) can0 565#74010000
(1735395800.125588) can0 566#0000
(1735395800.125591) can0 567#660300000000
(1735395800.125594) can0 660#000004
(1735395800.127383) can0 661#00000000
(1735395800.127386) can0 662#00000000
(1735395800.128465) can0 670#000004
(1735395800.128467) can0 671#00000000
(1735395800.128469) can0 672#00000000
(1735395800.130472) can0 660#000004
(1735395800.130475) can0 661#00000000
(1735395800.130476) can0 662#00000000
(1735395800.132521) can0 670#000004
(1735395800.132524) can0 671#00000000
(1735395800.132525) can0 672#00000000
(1735395800.135238) can0 660#000004
(1735395800.135241) can0 661#00000000
(1735395800.135242) can0 662#00000000
(1735395800.135244) can0 560#3402010001
(1735395800.135502) can0 561#030208
(1735395800.135505) can0 562#C000C8FF02000000
(1735395800.135506) can0 563#D0DEC8C9C5
(1735395800.135508) can0 564#1A15
(1735395800.135509) can0 565#74010000
(1735395800.135512) can0 566#0000
(1735395800.136662) can0 567#660300000000
(1735395800.136664) can0 670#000004
(1735395800.136666) can0 671#00000000
(1735395800.136667) can0 672#00000000
(1735395800.138897) can0 660#000004
(1735395800.138899) can0 661#00000000
(1735395800.138900) can0 662#00000000
(1735395800.141285) can0 670#000004
(1735395800.141287) can0 671#00000000
(1735395800.141289) can0 672#00000000
(1735395800.142463) can0 660#000004
(1735395800.142466) can0 661#00000000
(1735395800.142467) can0 662#00000000
(1735395800.144417) can0 670#000004
(1735395800.144419) can0 671#00000000
(1735395800.144421) can0 672#00000000
(1735395800.144422) can0 560#3E02010001
(1735395800.146295) can0 561#030208
(1735395800.146298) can0 562#FFFF180003000000
(1735395800.146299) can0 565#74010000
(1735395800.146301) can0 566#0000
(1735395800.146302) can0 567#660300000000
(1735395800.146305) can0 660#000004
(1735395800.146665) can0 661#00000000
(1735395800.146668) can0 662#00000000
(1735395800.149235) can0 670#000004
(1735395800.149237) can0 671#00000000
(1735395800.149239) can0 672#00000000
(1735395800.151474) can0 660#000004
(1735395800.151477) can0 661#00000000
(1735395800.151478) can0 662#00000000
(1735395800.152491) can0 670#000004
(1735395800.152493) can0 671#00000000
(1735395800.152495) can0 672#00000000
(1735395800.154449) can0 660#000004
(1735395800.154451) can0 661#00000000
(1735395800.154453) can0 662#00000000
(1735395800.154454) can0 560#4802010001
(1735395800.156403) can0 561#030208
(1735395800.156405) can0 562#75FF34FF02000000
(1735395800.156407) can0 565#74010000
(1735395800.156408) can0 566#0000
(1735395800.156409) can0 567#660300000000
(1735395800.156412) can0 670#000004
(1735395800.156591) can0 671#00000000
(1735395800.156593) can0 672#00000000
(1735395800.159245) can0 660#000004
(1735395800.159247) can0 661#00000000
(1735395800.159250) can0 662#00000000
(1735395800.160492) can0 670#000004
(1735395800.160494) can0 671#00000000
(1735395800.160496) can0 672#00000000
(1735395800.162723) can0 660#000004
(1735395800.162725) can0 661#00000000
(1735395800.162727) can0 662#00000000
(1735395800.164413) can0 670#000004
(1735395800.164416) can0 671#00000000
(1735395800.164417) can0 672#00000000
(1735395800.164418) can0 560#5202010001
(1735395800.165697) can0 561#030208
(1735395800.165699) can0 562#F1FFDEFF02000000
(1735395800.165701) can0 565#74010000
(1735395800.165702) can0 566#0000
(1735395800.165703) can0 567#660300000000
(1735395800.165707) can0 660#000004
(1735395800.167384) can0 661#00000000
(1735395800.167386) can0 662#00000000
(1735395800.168458) can0 670#000004
(1735395800.168460) can0 671#00000000
(1735395800.168462) can0 672#00000000
(1735395800.171789) can0 660#000004
(1735395800.171791) can0 661#00000000
(1735395800.171793) can0 662#00000000
(1735395800.172575) can0 670#000004
(1735395800.172578) can0 671#00000000
(1735395800.172579) can0 672#00000000
(1735395800.174514) can0 660#000004
(1735395800.174517) can0 661#00000000
(1735395800.174518) can0 662#00000000
(1735395800.174520) can0 560#5C02010001
(1735395800.176434) can0 561#030208
(1735395800.176436) can0 562#4E00130003000000
(1735395800.176438) can0 565#74010000
(1735395800.176439) can0 566#0000
(1735395800.176441) can0 567#660300000000
(1735395800.176444) can0 670#000004
(1735395800.176645) can0 671#00000000
(1735395800.176647) can0 672#00000000
(1735395800.178469) can0 660#000004
(1735395800.178472) can0 661#00000000
(1735395800.178474) can0 662#00000000
(1735395800.180508) can0 670#000004
(1735395800.180510) can0 671#00000000
(1735395800.180512) can0 672#00000000
(1735395800.183387) can0 660#000004
(1735395800.183389) can0 661#00000000
(1735395800.183391) can0 662#00000000
(1735395800.184661) can0 670#000004
(1735395800.184664) can0 671#00000000
(1735395800.184665) can0 672#00000000
(1735395800.184666) can0 560#6602010001
(1735395800.186381) can0 561#030208
(1735395800.186383) can0 562#7100CDFF02000000
(1735395800.186385) can0 565#74010000
(1735395800.186386) can0 566#0000
(1735395800.186387) can0 567#660300000000
(1735395800.186391) can0 660#000004
(1735395800.186643) can0 661#00000000
(1735395800.186645) can0 662#00000000
(1735395800.188459) can0 670#000004
(1735395800.188461) can0 671#00000000
(1735395800.188464) can0 672#00000000
(1735395800.191291) can0 660#000004
(1735395800.191293) can0 661#00000000
(1735395800.191295) can0 662#00000000
(1735395800.192432) can0 670#000004
(1735395800.192435) can0 671#00000000
(1735395800.192436) can0 672#00000000
(1735395800.194468) can0 660#000004
(1735395800.194470) can0 661#00000000
(1735395800.194472) can0 662#00000000
(1735395800.194473) can0 560#7002010001
(1735395800.196403) can0 561#030208
(1735395800.196406) can0 562#1400030004000000
(1735395800.196408) can0 565#74010000
(1735395800.196409) can0 566#0000
(1735395800.196410) can0 567#660300000000
(1735395800.196414) can0 670#000004
(1735395800.196590) can0 671#00000000
(1735395800.196593) can0 672#00000000
(1735395800.199234) can0 660#000004
(1735395800.199237) can0 661#00000000
(1735395800.199240) can0 662#00000000
(1735395800.200692) can0 670#000004
(1735395800.200695) can0 671#00000000
(1735395800.200696) can0 672#00000000
(1735395800.202449) can0 660#000004
(1735395800.202452) can0 661#00000000
(1735395800.202453) can0 662#00000000
(1735395800.204413) can0 670#000004
(1735395800.204415) can0 671#00000000
(1735395800.204416) can0 672#00000000
(1735395800.205462) can0 560#7A02010001
(1735395800.205465) can0 561#030208
(1735395800.205466) can0 562#6400D70003000000
(1735395800.205468) can0 565#74010000
(1735395800.205469) can0 566#0000
(1735395800.205472) can0 567#660300000000
(1735395800.206509) can0 660#000004
(1735395800.206512) can0 661#00000000
(1735395800.206513) can0 662#00000000
(1735395800.208722) can0 670#000004
(1735395800.208725) can0 671#00000000
(1735395800.208726) can0 672#00000000
(1735395800.210469) can0 660#000004
(1735395800.210472) can0 661#00000000
(1735395800.210473) can0 662#00000000
(1735395800.213306) can0 670#000004
(1735395800.213309) can0 671#00000000
(1735395800.213310) can0 672#00000000
(1735395800.214469) can0 660#000004
(1735395800.214471) can0 661#00000000
(1735395800.214473) can0 662#00000000
(1735395800.214474) can0 560#8402010001
(1735395800.216295) can0 561#030208
(1735395800.216298) can0 562#4000B20004000000
(1735395800.216300) can0 565#74010000
(1735395800.216301) can0 566#0000
(1735395800.216302) can0 567#660300000000
(1735395800.216305) can0 670#000004
(1735395800.216665) can0 671#00000000
(1735395800.216667) can0 672#00000000
(1735395800.219240) can0 660#000004
(1735395800.219243) can0 661#00000000
(1735395800.219244) can0 662#00000000
(1735395800.221404) can0 670#000004
(1735395800.221407) can0 671#00000000
(1735395800.221408) can0 672#00000000
(1735395800.222641) can0 660#000004
(1735395800.222643) can0 661#00000000
(1735395800.222644) can0 662#00000000
(1735395800.224466) can0 670#000004
(1735395800.224468) can0 671#00000000
(1735395800.224470) can0 672#00000000
(1735395800.224471) can0 560#8E02010001
(1735395800.226396) can0 561#030208
(1735395800.226399) can0 562#7A00C20002000000
(1735395800.226401) can0 565#74010000
(1735395800.226403) can0 566#0000
(1735395800.226404) can0 567#660300000000
(1735395800.226411) can0 660#000004
(1735395800.226643) can0 661#00000000
(1735395800.226646) can0 662#00000000
(1735395800.229241) can0 670#000004
(1735395800.229243) can0 671#00000000
(1735395800.229245) can0 672#00000000
(1735395800.231780) can0 660#000004
(1735395800.231782) can0 661#00000000
(1735395800.231784) can0 662#00000000
(1735395800.233608) can0 670#000004
(1735395800.233611) can0 671#00000000
(1735395800.233612) can0 672#00000000
(1735395800.234434) can0 660#000004
(1735395800.234437) can0 661#00000000
(1735395800.234438) can0 662#00000000
(1735395800.235469) can0 560#9802010001
(1735395800.235472) can0 561#030208
(1735395800.235473) can0 562#2DFFE9FE03000000
(1735395800.235474) can0 563#D0DEC8C9C6
(1735395800.235476) can0 564#1A15
(1735395800.235479) can0 565#74010000
(1735395800.235480) can0 566#0000
(1735395800.237385) can0 567#660300000000
(1735395800.237388) can0 670#000004
(1735395800.237391) can0 671#00000000
(1735395800.237392) can0 672#00000000
(1735395800.238435) can0 660#000004
(1735395800.238438) can0 661#00000000
(1735395800.238439) can0 662#00000000
(1735395800.240415) can0 670#000004
(1735395800.240417) can0 671#00000000
(1735395800.240419) can0 672#00000000
(1735395800.242662) can0 660#000004
(1735395800.242665) can0 661#00000000
(1735395800.242666) can0 662#00000000
(1735395800.244452) can0 670#000004
(1735395800.244455) can0 671#00000000
(1735395800.244456) can0 672#00000000
(1735395800.245465) can0 560#A202010001
(1735395800.245468) can0 561#030208
(1735395800.245469) can0 562#0000840000000000
(1735395800.245471) can0 565#74010000
(1735395800.245474) can0 566#0000
(1735395800.245475) can0 567#660300000000
(1735395800.246641) can0 660#000004
(1735395800.246643) can0 661#00000000
(1735395800.246646) can0 662#00000000
(1735395800.248390) can0 670#000004
(1735395800.248392) can0 671#00000000
(1735395800.248394) can0 672#00000000
(1735395800.251332) can0 660#000004
(1735395800.251335) can0 661#00000000
(1735395800.251336) can0 662#00000000
(1735395800.253568) can0 670#000004
(1735395800.253571) can0 671#00000000
(1735395800.253572) can0 672#00000000
(1735395800.255696) can0 660#000004
(1735395800.255699) can0 661#00000000
(1735395800.255700) can0 662#00000000
(1735395800.255702) can0 560#AC02010001
(1735395800.255743) can0 561#030208
(1735395800.255745) can0 562#DBFFF3FF00000000
(1735395800.255747) can0 565#74010000
(1735395800.255749) can0 566#0000
(1735395800.255751) can0 567#660300000000
(1735395800.255752) can0 670#000004
(1735395800.257381) can0 671#00000000
(1735395800.257384) can0 672#00000000
(1735395800.258645) can0 660#000004
(1735395800.258647) can0 661#00000000
(1735395800.258648) can0 662#00000000
(1735395800.260492) can0 670#000004
(1735395800.260495) can0 671#00000000
(1735395800.260496) can0 672#00000000
(1735395800.262813) can0 660#000004
(1735395800.262815) can0 661#00000000
(1735395800.262816) can0 662#00000000
(1735395800.265186) can0 670#000004
(1735395800.265189) can0 671#00000000
(1735395800.265190) can0 672#00000000
(1735395800.265367) can0 560#B602010001
(1735395800.265370) can0 561#030208
(1735395800.265373) can0 562#F7FF22FF03000000
(1735395800.265374) can0 565#74010000
(1735395800.265376) can0 566#0000
(1735395800.265378) can0 567#660300000000
(1735395800.266651) can0 660#000004
(1735395800.266653) can0 661#00000000
(1735395800.266655) can0 662#00000000
(1735395800.268389) can0 670#000004
(1735395800.268392) can0 671#00000000
(1735395800.268393) can0 672#00000000
(1735395800.270414) can0 660#000004
(1735395800.270416) can0 661#00000000
(1735395800.270418) can0 662#00000000
(1735395800.272519) can0 670#000004
(1735395800.272521) can0 671#00000000
(1735395800.272522) can0 672#00000000
(1735395800.275241) can0 660#000004
(1735395800.275244) can0 661#00000000
(1735395800.275245) can0 662#00000000
(1735395800.275383) can0 560#C002010001
(1735395800.275387) can0 561#030208
(1735395800.275389) can0 562#E6FE77FF03000000
(1735395800.275391) can0 565#74010000
(1735395800.275393) can0 566#0000
(1735395800.275395) can0 567#660300000000
(1735395800.276508) can0 670#000004
(1735395800.276511) can0 671#00000000
(1735395800.276512) can0 672#00000000
(1735395800.278834) can0 660#000004
(1735395800.278837) can0 661#00000000
(1735395800.278838) can0 662#00000000
(1735395800.281286) can0 670#000004
(1735395800.281288) can0 671#00000000
(1735395800.281290) can0 672#00000000
(1735395800.282642) can0 660#000004
(1735395800.282644) can0 661#00000000
(1735395800.282646) can0 662#00000000
(1735395800.284414) can0 670#000004
(1735395800.284426) can0 671#00000000
(1735395800.284427) can0 672#00000000
(1735395800.284429) can0 560#CA02010001
(1735395800.286295) can0 561#030208
(1735395800.286298) can0 562#B300660004000000
(1735395800.286300) can0 565#74010000
(1735395800.286301) can0 566#0000
(1735395800.286304) can0 567#660300000000
(1735395800.286306) can0 660#000004
(1735395800.286577) can0 661#00000000
(1735395800.286580) can0 662#00000000
(1735395800.289224) can0 670#000004
(1735395800.289226) can0 671#00000000
(1735395800.289228) can0 672#00000000
(1735395800.291464) can0 660#000004
(1735395800.291466) can0 661#00000000
(1735395800.291468) can0 662#00000000
(1735395800.293300) can0 670#000004
(1735395800.293302) can0 671#00000000
(1735395800.293304) can0 672#00000000
(1735395800.294433) can0 660#000004
(1735395800.294435) can0 661#00000000
(1735395800.294436) can0 662#00000000
(1735395800.295468) can0 560#D402010001
(1735395800.295471) can0 561#030208
(1735395800.295472) can0 562#4E00800002000000
(1735395800.295473) can0 565#74010000
(1735395800.295476) can0 566#0000
(1735395800.295479) can0 567#660300000000
(1735395800.296534) can0 670#000004
(1735395800.296537) can0 671#00000000
(1735395800.296539) can0 672#00000000
(1735395800.298394) can0 660#000004
(1735395800.298396) can0 661#00000000
(1735395800.298398) can0 662#00000000
(1735395800.301223) can0 670#000004
(1735395800.301225) can0 671#00000000
(1735395800.301227) can0 672#00000000
(1735395800.302492) can0 660#000004
(1735395800.302494) can0 661#00000000
(1735395800.302496) can0 662#00000000
(1735395800.304448) can0 670#000004
(1735395800.304450) can0 671#00000000
(1735395800.304452) can0 672#00000000
(1735395800.304453) can0 560#DE02010001
(1735395800.306402) can0 561#030208
(1735395800.306405) can0 562#9D007B0000000000
(1735395800.306406) can0 565#74010000
(1735395800.306408) can0 566#0000
(1735395800.306411) can0 567#660300000000
(1735395800.306414) can0 660#000004
(1735395800.306590) can0 661#00000000
(1735395800.306592) can0 662#00000000
(1735395800.308363) can0 670#000004
(1735395800.308379) can0 671#00000000
(1735395800.308381) can0 672#00000000
(1735395800.311766) can0 660#000004
(1735395800.311769) can0 661#00000000
(1735395800.311770) can0 662#00000000
(1735395800.312579) can0 670#000004
(1735395800.312581) can0 671#00000000
(1735395800.312583) can0 672#00000000
(1735395800.314831) can0 660#000004
(1735395800.314833) can0 661#00000000
(1735395800.314834) can0 662#00000000
(1735395800.315554) can0 560#E802010001
(1735395800.315556) can0 561#030208
(1735395800.315558) can0 562#0500C9FF02000000
(1735395800.315559) can0 565#74010000
(1735395800.315563) can0 566#0000
(1735395800.315565) can0 567#660300000000
(1735395800.316503) can0 670#000004
(1735395800.316505) can0 671#00000000
(1735395800.316507) can0 672#00000000
(1735395800.318385) can0 660#000004
(1735395800.318388) can0 661#00000000
(1735395800.318389) can0 662#00000000
(1735395800.321286) can0 670#000004
(1735395800.321289) can0 671#00000000
(1735395800.321290) can0 672#00000000
(1735395800.322497) can0 660#000004
(1735395800.322500) can0 661#00000000
(1735395800.322501) can0 662#00000000
(1735395800.325225) can0 670#000004
(1735395800.325227) can0 671#00000000
(1735395800.325229) can0 672#00000000
(1735395800.325230) can0 560#F202010001
(1735395800.325504) can0 561#030208
(1735395800.325506) can0 562#3CFF23FF05000000
(1735395800.325507) can0 565#74010000
(1735395800.325509) can0 566#0000
(1735395800.325511) can0 567#660300000000
(1735395800.325512) can0 660#000004
(1735395800.327870) can0 661#00000000
(1735395800.327872) can0 662#00000000
(1735395800.328578) can0 670#000004
(1735395800.328580) can0 671#00000000
(1735395800.328582) can0 672#00000000
(1735395800.330518) can0 660#000004
(1735395800.330521) can0 661#00000000
(1735395800.330522) can0 662#00000000
(1735395800.333309) can0 670#000004
(1735395800.333311) can0 671#00000000
(1735395800.333313) can0 672#00000000
(1735395800.334433) can0 660#000004
(1735395800.334435) can0 661#00000000
(1735395800.334437) can0 662#00000000
(1735395800.336650) can0 560#FC02010001
(1735395800.336653) can0 561#030208
(1735395800.336655) can0 562#3900950001000000
(1735395800.336656) can0 563#D0DEC8C8C5
(1735395800.336659) can0 564#1A15
(1735395800.336661) can0 565#74010000
(1735395800.336662) can0 566#0000
(1735395800.336702) can0 567#660300000000
(1735395800.336705) can0 670#000004
(1735395800.336707) can0 671#00000000
(1735395800.336709) can0 672#00000000
(1735395800.338390) can0 660#000004
(1735395800.338393) can0 661#00000000
(1735395800.338396) can0 662#00000000
(1735395800.340452) can0 670#000004
(1735395800.340455) can0 671#00000000
(1735395800.340458) can0 672#00000000
(1735395800.342434) can0 660#000004
(1735395800.342437) can0 661#00000000
(1735395800.342439) can0 662#00000000
(1735395800.344438) can0 670#000004
(1735395800.344440) can0 671#00000000
(1735395800.344443) can0 672#00000000
(1735395800.345464) can0 560#0603010001
(1735395800.345466) can0 561#030208
(1735395800.345469) can0 562#E2FF0F0000000000
(1735395800.345471) can0 565#74010000
(1735395800.345473) can0 566#0000
(1735395800.345475) can0 567#660300000000
(1735395800.346640) can0 660#000004
(1735395800.346642) can0 661#00000000
(1735395800.346643) can0 662#00000000
(1735395800.348390) can0 670#000004
(1735395800.348392) can0 671#00000000
(1735395800.348393) can0 672#00000000
(1735395800.350449) can0 660#000004
(1735395800.350452) can0 661#00000000
(1735395800.350453) can0 662#00000000
(1735395800.352653) can0 670#000004
(1735395800.352655) can0 671#00000000
(1735395800.352657) can0 672#00000000
(1735395800.354386) can0 660#000004
(1735395800.354389) can0 661#00000000
(1735395800.354390) can0 662#00000000
(1735395800.355465) can0 560#1003010001
(1735395800.355468) can0 561#030208
(1735395800.355469) can0 562#0600350000000000
(1735395800.355470) can0 565#74010000
(1735395800.355472) can0 566#0000
(1735395800.355473) can0 567#660300000000
(1735395800.356652) can0 670#000004
(1735395800.356654) can0 671#00000000
(1735395800.356655) can0 672#00000000
(1735395800.358906) can0 660#000004
(1735395800.358908) can0 661#00000000
(1735395800.358909) can0 662#00000000
(1735395800.360412) can0 670#000004
(1735395800.360414) can0 671#00000000
(1735395800.360415) can0 672#00000000
(1735395800.362468) can0 660#000004
(1735395800.362470) can0 661#00000000
(1735395800.362472) can0 662#00000000
(1735395800.364410) can0 670#000004
(1735395800.364413) can0 671#00000000
(1735395800.364414) can0 672#00000000
(1735395800.365465) can0 560#1A03010001
(1735395800.365467) can0 561#030208
(1735395800.365469) can0 562#B7FFCEFF04000000
(1735395800.365470) can0 565#74010000
(1735395800.365471) can0 566#0000
(1735395800.365473) can0 567#660300000000
(1735395800.366662) can0 660#000004
(1735395800.366665) can0 661#00000000
(1735395800.366666) can0 662#00000000
(1735395800.368411) can0 670#000004
(1735395800.368414) can0 671#00000000
(1735395800.368415) can0 672#00000000
(1735395800.370448) can0 660#000004
(1735395800.370451) can0 661#00000000
(1735395800.370452) can0 662#00000000
(1735395800.372377) can0 670#000004
(1735395800.372379) can0 671#00000000
(1735395800.372381) can0 672#00000000
(1735395800.374388) can0 660#000004
(1735395800.374390) can0 661#00000000
(1735395800.374392) can0 662#00000000
(1735395800.375462) can0 560#2403010001
(1735395800.375464) can0 561#030208
(1735395800.375466) can0 562#2D01370003000000
(1735395800.375467) can0 565#74010000
(1735395800.375469) can0 566#0000
(1735395800.375470) can0 567#660300000000
(1735395800.376492) can0 670#000004
(1735395800.376494) can0 671#00000000
(1735395800.376496) can0 672#00000000
(1735395800.379255) can0 660#000004
(1735395800.379257) can0 661#00000000
(1735395800.379258) can0 662#00000000
(1735395800.381496) can0 670#000004
(1735395800.381500) can0 671#00000000
(1735395800.381501) can0 672#00000000
(1735395800.382436) can0 660#000004
(1735395800.382439) can0 661#00000000
(1735395800.382440) can0 662#00000000
(1735395800.384392) can0 670#000004
(1735395800.384394) can0 671#00000000
(1735395800.384396) can0 672#00000000
(1735395800.385459) can0 560#2E03010001
(1735395800.385461) can0 561#030208
(1735395800.385463) can0 562#A8FF93FF04000000
(1735395800.385464) can0 565#74010000
(1735395800.385465) can0 566#0000
(1735395800.385467) can0 567#660300000000
(1735395800.386818) can0 660#000004
(1735395800.386821) can0 661#00000000
(1735395800.386823) can0 662#00000000
(1735395800.388437) can0 670#000004
(1735395800.388440) can0 671#00000000
(1735395800.388441) can0 672#00000000
(1735395800.390432) can0 660#000004
(1735395800.390434) can0 661#00000000
(1735395800.390436) can0 662#00000000
(1735395800.393298) can0 670#000004
(1735395800.393300) can0 671#00000000
(1735395800.393301) can0 672#00000000
(1735395800.394435) can0 660#000004
(1735395800.394438) can0 661#00000000
(1735395800.394439) can0 662#00000000
(1735395800.395463) can0 560#3803010001
(1735395800.395465) can0 561#030208
(1735395800.395467) can0 562#85FFDBFF02000000
(1735395800.395468) can0 565#74010000
(1735395800.395470) can0 566#0000
(1735395800.395471) can0 567#660300000000
(1735395800.396642) can0 670#000004
(1735395800.396645) can0 671#00000000
(1735395800.396646) can0 672#00000000
(1735395800.398386) can0 660#000004
(1735395800.398389) can0 661#00000000
(1735395800.398390) can0 662#00000000
(1735395800.400448) can0 670#000004
(1735395800.400451) can0 671#00000000
(1735395800.400452) can0 672#00000000
(1735395800.402495) can0 660#000004
(1735395800.402497) can0 661#00000000
(1735395800.402498) can0 662#00000000
(1735395800.405242) can0 670#000004
(1735395800.405245) can0 671#00000000
(1735395800.405246) can0 672#00000000
(1735395800.405399) can0 560#4203010001
(1735395800.405401) can0 561#030208
(1735395800.405403) can0 562#6FFF83FF00000000
(1735395800.405404) can0 565#74010000
(1735395800.405407) can0 566#0000
(1735395800.405409) can0 567#660300000000
(1735395800.406642) can0 660#000004
(1735395800.406644) can0 661#00000000
(1735395800.406645) can0 662#00000000
(1735395800.408388) can0 670#000004
(1735395800.408390) can0 671#00000000
(1735395800.408391) can0 672#00000000
(1735395800.410445) can0 660#000004
(1735395800.410447) can0 661#00000000
(1735395800.410449) can0 662#00000000
(1735395800.412507) can0 670#000004
(1735395800.412510) can0 671#00000000
(1735395800.412511) can0 672#00000000
(1735395800.415252) can0 660#000004
(1735395800.415255) can0 661#00000000
(1735395800.415256) can0 662#00000000
(1735395800.415375) can0 560#4C03010001
(1735395800.415377) can0 561#030208
(1735395800.415379) can0 562#BEFF7EFF04000000
(1735395800.415380) can0 565#74010000
(1735395800.415383) can0 566#0000
(1735395800.415384) can0 567#660300000000
(1735395800.416655) can0 670#000004
(1735395800.416657) can0 671#00000000
(1735395800.416660) can0 672#00000000
(1735395800.418923) can0 660#000004
(1735395800.418925) can0 661#00000000
(1735395800.418927) can0 662#00000000
(1735395800.420417) can0 670#000004
(1735395800.420419) can0 671#00000000
(1735395800.420421) can0 672#00000000
(1735395800.422471) can0 660#000004
(1735395800.422473) can0 661#00000000
(1735395800.422475) can0 662#00000000
(1735395800.424404) can0 670#000004
(1735395800.424406) can0 671#00000000
(1735395800.424407) can0 672#00000000
(1735395800.425473) can0 560#5603010001
(1735395800.425475) can0 561#030208
(1735395800.425477) can0 562#3F00450002000000
(1735395800.425478) can0 565#74010000
(1735395800.425480) can0 566#0000
(1735395800.425481) can0 567#660300000000
(1735395800.426672) can0 660#000004
(1735395800.426675) can0 661#00000000
(1735395800.426677) can0 662#00000000
(1735395800.428904) can0 670#000004
(1735395800.428906) can0 671#00000000
(1735395800.428908) can0 672#00000000
(1735395800.431287) can0 660#000004
(1735395800.431290) can0 661#00000000
(1735395800.431291) can0 662#00000000
(1735395800.432468) can0 670#000004
(1735395800.432471) can0 671#00000000
(1735395800.432472) can0 672#00000000
(1735395800.434410) can0 660#000004
(1735395800.434413) can0 661#00000000
(1735395800.434415) can0 662#00000000
(1735395800.434416) can0 560#6003010001
(1735395800.436331) can0 561#030208
(1735395800.436333) can0 562#67FF66FF03000000
(1735395800.436335) can0 563#D0DEC8C9C4
(1735395800.436336) can0 564#1A15
(1735395800.436338) can0 565#74010000
(1735395800.436339) can0 566#0000
(1735395800.436635) can0 567#660300000000
(1735395800.436638) can0 670#000004
(1735395800.436640) can0 671#00000000
(1735395800.436641) can0 672#00000000
(1735395800.439247) can0 660#000004
(1735395800.439249) can0 661#00000000
(1735395800.439251) can0 662#00000000
(1735395800.441527) can0 670#000004
(1735395800.441530) can0 671#00000000
(1735395800.441531) can0 672#00000000
(1735395800.443283) can0 660#000004
(1735395800.443287) can0 661#00000000
(1735395800.443289) can0 662#00000000
(1735395800.444388) can0 670#000004
(1735395800.444390) can0 671#00000000
(1735395800.444392) can0 672#00000000
(1735395800.445467) can0 560#6A03010001
(1735395800.445469) can0 561#030208
(1735395800.445470) can0 562#62FF8E0002000000
(1735395800.445473) can0 565#74010000
(1735395800.445474) can0 566#0000
(1735395800.445475) can0 567#660300000000
(1735395800.446645) can0 660#000004
(1735395800.446648) can0 661#00000000
(1735395800.446649) can0 662#00000000
(1735395800.448398) can0 670#000004
(1735395800.448400) can0 671#00000000
(1735395800.448402) can0 672#00000000
(1735395800.450436) can0 660#000004
(1735395800.450438) can0 661#00000000
(1735395800.450440) can0 662#00000000
(1735395800.452504) can0 670#000004
(1735395800.452506) can0 671#00000000
(1735395800.452507) can0 672#00000000
(1735395800.454420) can0 660#000004
(1735395800.454424) can0 661#00000000
(1735395800.454425) can0 662#00000000
(1735395800.456669) can0 560#7403010001
(1735395800.456671) can0 561#030208
(1735395800.456673) can0 562#C200A00000000000
(1735395800.456675) can0 565#74010000
(1735395800.456677) can0 566#0000
(1735395800.456678) can0 567#660300000000
(1735395800.456718) can0 670#000004
(1735395800.456721) can0 671#00000000
(1735395800.456722) can0 672#00000000
(1735395800.459185) can0 660#000004
(1735395800.459189) can0 661#00000000
(1735395800.459192) can0 662#00000000
(1735395800.461485) can0 670#000004
(1735395800.461488) can0 671#00000000
(1735395800.461491) can0 672#00000000
(1735395800.462421) can0 660#000004
(1735395800.462423) can0 661#00000000
(1735395800.462425) can0 662#00000000
(1735395800.464713) can0 670#000004
(1735395800.464717) can0 671#00000000
(1735395800.464719) can0 672#00000000
(1735395800.466635) can0 560#7E03010001
(1735395800.466639) can0 561#030208
(1735395800.466642) can0 562#AFFF44FF03000000
(1735395800.466643) can0 565#74010000
(1735395800.466645) can0 566#0000
(1735395800.466647) can0 567#660300000000
(1735395800.466690) can0 660#000004
(1735395800.466691) can0 661#00000000
(1735395800.466693) can0 662#00000000
(1735395800.469208) can0 670#000004
(1735395800.469212) can0 671#00000000
(1735395800.469213) can0 672#00000000
(1735395800.470434) can0 660#000004
(1735395800.470437) can0 661#00000000
(1735395800.470439) can0 662#00000000
(1735395800.472416) can0 670#000004
(1735395800.472418) can0 671#00000000
(1735395800.472421) can0 672#00000000
(1735395800.475228) can0 660#000004
(1735395800.475231) can0 661#00000000
(1735395800.475233) can0 662#00000000
(1735395800.475360) can0 560#8803010001
(1735395800.475362) can0 561#030208
(1735395800.475365) can0 562#4E00130002000000
(1735395800.475367) can0 565#74010000
(1735395800.475369) can0 566#0000
(1735395800.475371) can0 567#660300000000
(1735395800.476667) can0 670#000004
(1735395800.476671) can0 671#00000000
(1735395800.476672) can0 672#00000000
(1735395800.478943) can0 660#000004
(1735395800.478946) can0 661#00000000
(1735395800.478948) can0 662#00000000
(1735395800.480405) can0 670#000004
(1735395800.480408) can0 671#00000000
(1735395800.480410) can0 672#00000000
(1735395800.482417) can0 660#000004
(1735395800.482421) can0 661#00000000
(1735395800.482422) can0 662#00000000
(1735395800.484404) can0 670#000004
(1735395800.484407) can0 671#00000000
(1735395800.484409) can0 672#00000000
(1735395800.485468) can0 560#9203010001
(1735395800.485471) can0 561#030208
(1735395800.485473) can0 562#A500980001000000
(1735395800.485476) can0 565#74010000
(1735395800.485478) can0 566#0000
(1735395800.485482) can0 567#660300000000
(1735395800.487689) can0 660#000004
(1735395800.487692) can0 661#00000000
(1735395800.487695) can0 662#00000000
(1735395800.489582) can0 670#000004
(1735395800.489585) can0 671#00000000
(1735395800.489588) can0 672#00000000
(1735395800.491662) can0 660#000004
(1735395800.491665) can0 661#00000000
(1735395800.491671) can0 662#00000000
(1735395800.492412) can0 670#000004
(1735395800.492414) can0 671#00000000
(1735395800.492416) can0 672#00000000
(1735395800.494394) can0 660#000004
(1735395800.494397) can0 661#00000000
(1735395800.494399) can0 662#00000000
(1735395800.495462) can0 560#9C03010001
(1735395800.495464) can0 561#030208
(1735395800.495466) can0 562#620092FF01000000
(1735395800.495468) can0 565#74010000
(1735395800.495470) can0 566#0000
(1735395800.495472) can0 567#660300000000
(1735395800.496653) can0 670#000004
(1735395800.496655) can0 671#00000000
(1735395800.496657) can0 672#00000000
(1735395800.498399) can0 660#000004
(1735395800.498401) can0 661#00000000
(1735395800.498403) can0 662#00000000
(1735395800.500425) can0 670#000004
(1735395800.500427) can0 671#00000000
(1735395800.500429) can0 672#00000000
(1735395800.502386) can0 660#000004
(1735395800.502388) can0 661#00000000
(1735395800.502391) can0 662#00000000
(1735395800.504423) can0 670#000004
(1735395800.504426) can0 671#00000000
(1735395800.504428) can0 672#00000000
(1735395800.505468) can0 560#A603010001
(1735395800.505470) can0 561#030208
(1735395800.505473) can0 562#DE00A90000000000
(1735395800.505474) can0 565#74010000
(1735395800.505476) can0 566#0000
(1735395800.505478) can0 567#660300000000
(1735395800.506676) can0 660#000004
(1735395800.506678) can0 661#00000000
(1735395800.506680) can0 662#00000000
(1735395800.509026) can0 670#000004
(1735395800.509029) can0 671#00000000
(1735395800.509031) can0 672#00000000
(1735395800.510441) can0 660#000004
(1735395800.510444) can0 661#00000000
(1735395800.510446) can0 662#00000000
(1735395800.512381) can0 670#000004
(1735395800.512384) can0 671#00000000
(1735395800.512386) can0 672#00000000
(1735395800.514397) can0 660#000004
(1735395800.514400) can0 661#00000000
(1735395800.514402) can0 662#00000000
(1735395800.515388) can0 560#B003010001
(1735395800.515400) can0 561#030208
(1735395800.515403) can0 562#7900560002000000
(1735395800.515404) can0 565#74010000
(1735395800.515406) can0 566#0000
(1735395800.515408) can0 567#660300000000
(1735395800.516486) can0 670#000004
(1735395800.516489) can0 671#00000000
(1735395800.516490) can0 672#00000000
(1735395800.518415) can0 660#000004
(1735395800.518418) can0 661#00000000
(1735395800.518420) can0 662#00000000
(1735395800.520495) can0 670#000004
(1735395800.520497) can0 671#00000000
(1735395800.520499) can0 672#00000000
(1735395800.523234) can0 660#000004
(1735395800.523236) can0 661#00000000
(1735395800.523239) can0 662#00000000
(1735395800.525578) can0 670#000004
(1735395800.525580) can0 671#00000000
(1735395800.525583) can0 672#00000000
(1735395800.525622) can0 560#BA03010001
(1735395800.525624) can0 561#030208
(1735395800.525626) can0 562#F8FFFBFF03000000
(1735395800.525629) can0 565#74010000
(1735395800.525631) can0 566#0000
(1735395800.525635) can0 567#660300000000
(1735395800.526643) can0 660#000004
(1735395800.526647) can0 661#00000000
(1735395800.526649) can0 662#00000000
(1735395800.528916) can0 670#000004
(1735395800.528919) can0 671#00000000
(1735395800.528921) can0 672#00000000
(1735395800.531299) can0 660#000004
(1735395800.531302) can0 661#00000000
(1735395800.531307) can0 662#00000000
(1735395800.533585) can0 670#000004
(1735395800.533589) can0 671#00000000
(1735395800.533590) can0 672#00000000
(1735395800.535586) can0 660#000004
(1735395800.535589) can0 661#00000000
(1735395800.535591) can0 662#00000000
(1735395800.535631) can0 560#C403010001
(1735395800.535634) can0 561#030208
(1735395800.535636) can0 562#BA00170003000000
(1735395800.535639) can0 563#D0DEC8C8C6
(1735395800.535641) can0 564#1A15
(1735395800.535642) can0 565#74010000
(1735395800.535644) can0 566#0000
(1735395800.537836) can0 567#660300000000
(1735395800.537839) can0 670#000004
(1735395800.537841) can0 671#00000000
(1735395800.537843) can0 672#00000000
(1735395800.538408) can0 660#000004
(1735395800.538412) can0 661#00000000
(1735395800.538413) can0 662#00000000
(1735395800.540469) can0 670#000004
(1735395800.540471) can0 671#00000000
(1735395800.540473) can0 672#00000000
(1735395800.542390) can0 660#000004
(1735395800.542392) can0 661#00000000
(1735395800.542393) can0 662#00000000
(1735395800.545504) can0 670#000004
(1735395800.545507) can0 671#00000000
(1735395800.545509) can0 672#00000000
(1735395800.545549) can0 560#CE03010001
(1735395800.545551) can0 561#030208
(1735395800.545552) can0 562#4700620002000000
(1735395800.545555) can0 565#74010000
(1735395800.545556) can0 566#0000
(1735395800.545558) can0 567#660300000000
(1735395800.546635) can0 660#000004
(1735395800.546637) can0 661#00000000
(1735395800.546639) can0 662#00000000
(1735395800.548387) can0 670#000004
(1735395800.548389) can0 671#00000000
(1735395800.548391) can0 672#00000000
(1735395800.550405) can0 660#000004
(1735395800.550408) can0 661#00000000
(1735395800.550409) can0 662#00000000
(1735395800.552395) can0 670#000004
(1735395800.552398) can0 671#00000000
(1735395800.552399) can0 672#00000000
(1735395800.554406) can0 660#000004
(1735395800.554409) can0 661#00000000
(1735395800.554410) can0 662#00000000
(1735395800.555472) can0 560#D803010001
(1735395800.555475) can0 561#030208
(1735395800.555477) can0 562#1C008C0004000000
(1735395800.555479) can0 565#74010000
(1735395800.555480) can0 566#0000
(1735395800.555482) can0 567#660300000000
(1735395800.556674) can0 670#000004
(1735395800.556677) can0 671#00000000
(1735395800.556679) can0 672#00000000
(1735395800.558973) can0 660#000004
(1735395800.558975) can0 661#00000000
(1735395800.558976) can0 662#00000000
(1735395800.560405) can0 670#000004
(1735395800.560407) can0 671#00000000
(1735395800.560409) can0 672#00000000
(1735395800.562390) can0 660#000004
(1735395800.562392) can0 661#00000000
(1735395800.562394) can0 662#00000000
(1735395800.564399) can0 670#000004
(1735395800.564401) can0 671#00000000
(1735395800.564403) can0 672#00000000
(1735395800.565463) can0 560#E203010001
(1735395800.565465) can0 561#030208
(1735395800.565467) can0 562#0000840002000000
(1735395800.565469) can0 565#74010000
(1735395800.565471) can0 566#0000
(1735395800.565472) can0 567#660300000000
(1735395800.567724) can0 660#000004
(1735395800.567726) can0 661#00000000
(1735395800.567727) can0 662#00000000
(1735395800.569583) can0 670#000004
(1735395800.569586) can0 671#00000000
(1735395800.569587) can0 672#00000000
(1735395800.571663) can0 660#000004
(1735395800.571665) can0 661#00000000
(1735395800.571667) can0 662#00000000
(1735395800.573584) can0 670#000004
(1735395800.573586) can0 671#00000000
(1735395800.573588) can0 672#00000000
(1735395800.574414) can0 660#000004
(1735395800.574417) can0 661#00000000
(1735395800.574418) can0 662#00000000
(1735395800.576472) can0 560#EC03010001
(1735395800.576475) can0 561#030208
(1735395800.576476) can0 562#1C008C0002000000
(1735395800.576479) can0 565#74010000
(1735395800.576481) can0 566#0000
(1735395800.576482) can0 567#660300000000
(1735395800.576524) can0 670#000004
(1735395800.576527) can0 671#00000000
(1735395800.576529) can0 672#00000000
(1735395800.579219) can0 660#000004
(1735395800.579221) can0 661#00000000
(1735395800.579223) can0 662#00000000
(1735395800.581008) can0 670#000004
(1735395800.581011) can0 671#00000000
(1735395800.581012) can0 672#00000000
(1735395800.582420) can0 660#000004
(1735395800.582423) can0 661#00000000
(1735395800.582424) can0 662#00000000
(1735395800.584401) can0 670#000004
(1735395800.584404) can0 671#00000000
(1735395800.584406) can0 672#00000000
(1735395800.585464) can0 560#F603010001
(1735395800.585467) can0 561#030208
(1735395800.585468) can0 562#210065FF03000000
(1735395800.585470) can0 565#74010000
(1735395800.585473) can0 566#0000
(1735395800.585474) can0 567#660300000000
(1735395800.587296) can0 660#000004
(1735395800.587298) can0 661#00000000
(1735395800.587300) can0 662#00000000
(1735395800.588408) can0 670#000004
(1735395800.588411) can0 671#00000000
(1735395800.588412) can0 672#00000000
(1735395800.591245) can0 660#000004
(1735395800.591248) can0 661#00000000
(1735395800.591249) can0 662#00000000
(1735395800.592419) can0 670#000004
(1735395800.592421) can0 671#00000000
(1735395800.592423) can0 672#00000000
(1735395800.595502) can0 660#000004
(1735395800.595505) can0 661#00000000
(1735395800.595506) can0 662#00000000
(1735395800.595547) can0 560#0004010001
(1735395800.595548) can0 561#030208
(1735395800.595550) can0 562#CCFFB9FF02000000
(1735395800.595553) can0 565#74010000
(1735395800.595555) can0 566#0000
(1735395800.595557) can0 567#660300000000
(1735395800.596603) can0 670#000004
(1735395800.596606) can0 671#00000000
(1735395800.596608) can0 672#00000000
(1735395800.598441) can0 660#000004
(1735395800.598444) can0 661#00000000
(1735395800.598445) can0 662#00000000
(1735395800.600425) can0 670#000004
(1735395800.600427) can0 671#00000000
(1735395800.600428) can0 672#00000000
(1735395800.602397) can0 660#000004
(1735395800.602400) can0 661#00000000
(1735395800.602401) can0 662#00000000
(1735395800.604478) can0 670#000004
(1735395800.604480) can0 671#00000000
(1735395800.604482) can0 672#00000000
(1735395800.605472) can0 560#0A04010001
(1735395800.605475) can0 561#030208
(1735395800.605477) can0 562#8800900003000000
(1735395800.605478) can0 565#74010000
(1735395800.605480) can0 566#0000
(1735395800.605481) can0 567#660300000000
(1735395800.606654) can0 660#000004
(1735395800.606656) can0 661#00000000
(1735395800.606658) can0 662#00000000
(1735395800.608994) can0 670#000004
(1735395800.608996) can0 671#00000000
(1735395800.608998) can0 672#00000000
(1735395800.611711) can0 660#000004
(1735395800.611714) can0 661#00000000
(1735395800.611715) can0 662#00000000
(1735395800.613608) can0 670#000004
(1735395800.613611) can0 671#00000000
(1735395800.613612) can0 672#00000000
(1735395800.615637) can0 660#000004
(1735395800.615640) can0 661#00000000
(1735395800.615641) can0 662#00000000
(1735395800.615681) can0 560#1404010001
(1735395800.615682) can0 561#030208
(1735395800.615684) can0 562#A2FF4E0002000000
(1735395800.615686) can0 565#74010000
(1735395800.615689) can0 566#0000
(1735395800.615691) can0 567#660300000000
(1735395800.617783) can0 670#000004
(1735395800.617786) can0 671#00000000
(1735395800.617789) can0 672#00000000
(1735395800.618478) can0 660#000004
(1735395800.618481) can0 661#00000000
(1735395800.618484) can0 662#00000000
(1735395800.620734) can0 670#000004
(1735395800.620736) can0 671#00000000
(1735395800.620738) can0 672#00000000
(1735395800.622462) can0 660#000004
(1735395800.622465) can0 661#00000000
(1735395800.622467) can0 662#00000000
(1735395800.624739) can0 670#000004
(1735395800.624741) can0 671#00000000
(1735395800.624743) can0 672#00000000
(1735395800.626619) can0 560#1E04010001
(1735395800.626623) can0 561#030208
(1735395800.626625) can0 562#3100770001000000
(1735395800.626627) can0 565#74010000
(1735395800.626630) can0 566#0000
(1735395800.626631) can0 567#660300000000
(1735395800.626670) can0 660#000004
(1735395800.626673) can0 661#00000000
(1735395800.626678) can0 662#00000000
(1735395800.629049) can0 670#000004
(1735395800.629052) can0 671#00000000
(1735395800.629054) can0 672#00000000
(1735395800.631333) can0 660#000004
(1735395800.631336) can0 661#00000000
(1735395800.631338) can0 662#00000000
(1735395800.632673) can0 670#000004
(1735395800.632676) can0 671#00000000
(1735395800.632678) can0 672#00000000
(1735395800.635262) can0 660#000004
(1735395800.635264) can0 661#00000000
(1735395800.635265) can0 662#00000000
(1735395800.635434) can0 560#2804010001
(1735395800.635435) can0 561#030208
(1735395800.635438) can0 562#D3FF69FF03000000
(1735395800.635440) can0 563#D0DEC8C9C6
(1735395800.635442) can0 564#1A15
(1735395800.635444) can0 565#74010000
(1735395800.635446) can0 566#0000
(1735395800.637735) can0 567#660300000000
(1735395800.637737) can0 670#000004
(1735395800.637739) can0 671#00000000
(1735395800.637741) can0 672#00000000
(1735395800.639610) can0 660#000004
(1735395800.639614) can0 661#00000000
(1735395800.639615) can0 662#00000000
(1735395800.641744) can0 670#000004
(1735395800.641750) can0 671#00000000
(1735395800.641753) can0 672#00000000
(1735395800.642387) can0 660#000004
(1735395800.642390) can0 661#00000000
(1735395800.642392) can0 662#00000000
(1735395800.645497) can0 670#000004
(1735395800.645500) can0 671#00000000
(1735395800.645503) can0 672#00000000
(1735395800.645543) can0 560#3204010001
(1735395800.645545) can0 561#030208
(1735395800.645546) can0 562#F1FF4A0003000000
(1735395800.645549) can0 565#74010000
(1735395800.645550) can0 566#0000
(1735395800.645552) can0 567#660300000000
(1735395800.646529) can0 660#000004
(1735395800.646532) can0 661#00000000
(1735395800.646535) can0 662#00000000
(1735395800.649069) can0 670#000004
(1735395800.649071) can0 671#00000000
(1735395800.649074) can0 672#00000000
(1735395800.650404) can0 660#000004
(1735395800.650407) can0 661#00000000
(1735395800.650410) can0 662#00000000
(1735395800.652390) can0 670#000004
(1735395800.652393) can0 671#00000000
(1735395800.652396) can0 672#00000000
(1735395800.654411) can0 660#000004
(1735395800.654414) can0 661#00000000
(1735395800.654417) can0 662#00000000
(1735395800.655618) can0 560#3C04010001
(1735395800.655622) can0 561#030208
(1735395800.655624) can0 562#4600F7FF04000000
(1735395800.655629) can0 565#74010000
(1735395800.655631) can0 566#0000
(1735395800.655633) can0 567#660300000000
(1735395800.657297) can0 670#000004
(1735395800.657300) can0 671#00000000
(1735395800.657302) can0 672#00000000
(1735395800.658351) can0 660#000004
(1735395800.658354) can0 661#00000000
(1735395800.658359) can0 662#00000000
(1735395800.661598) can0 670#000004
(1735395800.661601) can0 671#00000000
(1735395800.661603) can0 672#00000000
(1735395800.662392) can0 660#000004
(1735395800.662395) can0 661#00000000
(1735395800.662397) can0 662#00000000
(1735395800.664683) can0 670#000004
(1735395800.664686) can0 671#00000000
(1735395800.664689) can0 672#00000000
(1735395800.666639) can0 560#4604010001
(1735395800.666643) can0 561#030208
(1735395800.666645) can0 562#D3FF6AFF01000000
(1735395800.666647) can0 565#74010000
(1735395800.666650) can0 566#0000
(1735395800.666654) can0 567#660300000000
(1735395800.666694) can0 660#000004
(1735395800.666696) can0 661#00000000
(1735395800.666698) can0 662#00000000
(1735395800.668436) can0 670#000004
(1735395800.668439) can0 671#00000000
(1735395800.668441) can0 672#00000000
(1735395800.670786) can0 660#000004
(1735395800.670788) can0 661#00000000
(1735395800.670791) can0 662#00000000
(1735395800.673216) can0 670#000004
(1735395800.673219) can0 671#00000000
(1735395800.673221) can0 672#00000000
(1735395800.675477) can0 660#000004
(1735395800.675481) can0 661#00000000
(1735395800.675483) can0 662#00000000
(1735395800.675552) can0 560#5004010001
(1735395800.675554) can0 561#030208
(1735395800.675557) can0 562#2400AA0003000000
(1735395800.675560) can0 565#74010000
(1735395800.675563) can0 566#0000
(1735395800.675566) can0 567#660300000000
(1735395800.676463) can0 670#000004
(1735395800.676467) can0 671#00000000
(1735395800.676470) can0 672#00000000
(1735395800.678404) can0 660#000004
(1735395800.678406) can0 661#00000000
(1735395800.678408) can0 662#00000000
(1735395800.680451) can0 670#000004
(1735395800.680456) can0 671#00000000
(1735395800.680458) can0 672#00000000
(1735395800.682556) can0 660#000004
(1735395800.682559) can0 661#00000000
(1735395800.682560) can0 662#00000000
(1735395800.684347) can0 670#000004
(1735395800.684350) can0 671#00000000
(1735395800.684351) can0 672#00000000
(1735395800.685455) can0 560#5A04010001
(1735395800.685458) can0 561#030208
(1735395800.685460) can0 562#CDFF250000000000
(1735395800.685463) can0 565#74010000
(1735395800.685465) can0 566#0000
(1735395800.685467) can0 567#660300000000
(1735395800.687280) can0 660#000004
(1735395800.687283) can0 661#00000000
(1735395800.687285) can0 662#00000000
(1735395800.688303) can0 670#000004
(1735395800.688306) can0 671#00000000
(1735395800.688308) can0 672#00000000
(1735395800.690439) can0 660#000004
(1735395800.690442) can0 661#00000000
(1735395800.690444) can0 662#00000000
(1735395800.692437) can0 670#000004
(1735395800.692441) can0 671#00000000
(1735395800.692442) can0 672#00000000
(1735395800.694379) can0 660#000004
(1735395800.694382) can0 661#00000000
(1735395800.694384) can0 662#00000000
(1735395800.696630) can0 560#6404010001
(1735395800.696633) can0 561#030208
(1735395800.696635) can0 562#B0FF1C0003000000
(1735395800.696638) can0 565#74010000
(1735395800.696640) can0 566#0000
(1735395800.696641) can0 567#660300000000
(1735395800.696681) can0 670#000004
(1735395800.696682) can0 671#00000000
(1735395800.696683) can0 672#00000000
(1735395800.699046) can0 660#000004
(1735395800.699049) can0 661#00000000
(1735395800.699051) can0 662#00000000
(1735395800.701332) can0 670#000004
(1735395800.701335) can0 671#00000000
(1735395800.701336) can0 672#00000000
(1735395800.702315) can0 660#000004
(1735395800.702328) can0 661#00000000
(1735395800.702329) can0 662#00000000
(1735395800.704373) can0 670#000004
(1735395800.704376) can0 671#00000000
(1735395800.704377) can0 672#00000000
(1735395800.705468) can0 560#6E04010001
(1735395800.705470) can0 561#030208
(1735395800.705472) can0 562#8C01D90002000000
(1735395800.705474) can0 565#74010000
(1735395800.705476) can0 566#0000
(1735395800.705478) can0 567#660300000000
(1735395800.706495) can0 660#000004
(1735395800.706498) can0 661#00000000
(1735395800.706499) can0 662#00000000
(1735395800.708372) can0 670#000004
(1735395800.708376) can0 671#00000000
(1735395800.708378) can0 672#00000000
(1735395800.710549) can0 660#000004
(1735395800.710551) can0 661#00000000
(1735395800.710553) can0 662#00000000
(1735395800.712384) can0 670#000004
(1735395800.712387) can0 671#00000000
(1735395800.712388) can0 672#00000000
(1735395800.714391) can0 660#000004
(1735395800.714393) can0 661#00000000
(1735395800.714395) can0 662#00000000
(1735395800.715464) can0 560#7804010001
(1735395800.715467) can0 561#030208
(1735395800.715469) can0 562#F1FFDEFF03000000
(1735395800.715471) can0 565#74010000
(1735395800.715473) can0 566#0000
(1735395800.715474) can0 567#660300000000
(1735395800.717706) can0 670#000004
(1735395800.717708) can0 671#00000000
(1735395800.717710) can0 672#00000000
(1735395800.719612) can0 660#000004
(1735395800.719614) can0 661#00000000
(1735395800.719616) can0 662#00000000
(1735395800.721715) can0 670#000004
(1735395800.721718) can0 671#00000000
(1735395800.721719) can0 672#00000000
(1735395800.723556) can0 660#000004
(1735395800.723559) can0 661#00000000
(1735395800.723560) can0 662#00000000
(1735395800.725564) can0 670#000004
